!File created by NanoVNA
# Hz S RI R 50
!LO
 600000000 -0.692568960  0.008744382
 602000000 -0.687790720  0.031570096
 604000000 -0.679189056  0.053366292
 606000000 -0.669902336  0.073166368
 608000000 -0.659498560  0.090981256
 610000000 -0.650024512  0.105999112
 612000000 -0.640352064  0.120960976
 614000000 -0.630977152  0.134687600
 616000000 -0.621858880  0.146771648
 618000000 -0.613217536  0.158719024
 620000000 -0.606165696  0.169027120
 622000000 -0.598938048  0.179698544
 624000000 -0.593244224  0.189640704
 626000000 -0.589495232  0.201854416
 628000000 -0.584068608  0.214158096
 630000000 -0.577518208  0.226864176
 632000000 -0.570962304  0.237729216
 634000000 -0.563259712  0.248952384
 636000000 -0.557533696  0.257745600
 638000000 -0.551880640  0.265502848
 640000000 -0.549400384  0.273891072
 642000000 -0.547484544  0.282592864
 644000000 -0.547611264  0.291809216
 646000000 -0.548463040  0.302130016
 648000000 -0.550401024  0.312145408
 650000000 -0.555145280  0.326961952
 652000000 -0.561635968  0.343166208
 654000000 -0.568421760  0.363270400
 656000000 -0.574460736  0.388991392
 658000000 -0.577095360  0.417574720
 660000000 -0.577761984  0.449811232
 662000000 -0.575117248  0.484091328
 664000000 -0.568214208  0.521581760
 666000000 -0.556255232  0.560708224
 668000000 -0.540470464  0.600631488
 670000000 -0.517876320  0.641784896
 672000000 -0.499031456  0.680951360
 674000000 -0.460558208  0.718646400
 676000000 -0.422821600  0.754641280
 678000000 -0.381363520  0.786605056
 680000000 -0.335418880  0.815217792
 682000000 -0.286302496  0.839028736
 684000000 -0.233281536  0.857687488
 686000000 -0.179206560  0.871795648
 688000000 -0.124493368  0.880071936
 690000000 -0.068100552  0.883225536
 692000000 -0.012659930  0.880998656
 694000000  0.041787556  0.873702656
 696000000  0.095225824  0.862017664
 698000000  0.145049408  0.846926592
 700000000  0.195054848  0.826493888
 702000000  0.240266416  0.802443200
 704000000  0.286132896  0.775740032
 706000000  0.327124896  0.747448832
 708000000  0.366847360  0.716710720
 710000000  0.404506112  0.682369920
 712000000  0.437627904  0.645434112
 714000000  0.469226528  0.605456576
 716000000  0.496560000  0.563322048
 718000000  0.520109664  0.519227552
 720000000  0.540024448  0.473838848
 722000000  0.554030400  0.429186112
 724000000  0.565579072  0.383523296
 726000000  0.572913344  0.340249920
 728000000  0.578239488  0.293715456
 730000000  0.579984320  0.249244976
 732000000  0.578370048  0.205379648
 734000000  0.571997312  0.159288336
 736000000  0.561412992  0.116547064
 738000000  0.546316736  0.073960608
 740000000  0.526924384  0.035478512
 742000000  0.504509440  0.001800927
 744000000  0.481197600 -0.027723856
 746000000  0.458432416 -0.054737204
 748000000  0.435062080 -0.079525632
 750000000  0.410050176 -0.103374320
 752000000  0.383939072 -0.124674088
 754000000  0.355732960 -0.136035280
 756000000  0.326834208 -0.151982352
 758000000  0.299642912 -0.164120480
 760000000  0.272787296 -0.173960368
 762000000  0.245641760 -0.182435904
 764000000  0.219021456 -0.187988896
 766000000  0.193265120 -0.191901792
 768000000  0.168807584 -0.194474688
 770000000  0.143956928 -0.195487968
 772000000  0.120036184 -0.195659952
 774000000  0.096378848 -0.195051216
 776000000  0.072171768 -0.192548240
 778000000  0.047834024 -0.188167888
 780000000  0.024862700 -0.180883088
 782000000  0.003621512 -0.171830176
 784000000 -0.015551934 -0.162386160
 786000000 -0.034308748 -0.153084240
 788000000 -0.053375788 -0.143461232
 790000000 -0.072595136 -0.132459312
 792000000 -0.091998384 -0.119033112
 794000000 -0.110286352 -0.102972848
 796000000 -0.125939992 -0.084823960
 798000000 -0.138444864 -0.065513008
 800000000 -0.148665248 -0.046703392
 802000000 -0.156749552 -0.028692042
 804000000 -0.164589264 -0.011494198
 806000000 -0.171663360  0.005964774
 808000000 -0.178285088  0.023843508
 810000000 -0.183571776  0.042331676
 812000000 -0.188014336  0.060419068
 814000000 -0.191062704  0.078431936
 816000000 -0.194368208  0.095601296
 818000000 -0.198576384  0.113450760
 820000000 -0.202865952  0.134124560
 822000000 -0.203632608  0.157431968
 824000000 -0.200882784  0.180823888
 826000000 -0.194305728  0.202881168
 828000000 -0.186213424  0.222474704
 830000000 -0.178607168  0.240185088
 832000000 -0.170710096  0.257682800
 834000000 -0.161532416  0.275175200
 836000000 -0.151534640  0.292049888
 838000000 -0.139182608  0.308738624
 840000000 -0.126206440  0.322931328
 842000000 -0.113423280  0.336110848
 844000000 -0.099836808  0.348384256
 846000000 -0.086082448  0.359918912
 848000000 -0.071230624  0.371090368
 850000000 -0.055908044  0.379572448
 852000000 -0.041000832  0.386229888
 854000000 -0.027370546  0.391524096
 856000000 -0.015402032  0.396516864
 858000000 -0.003874767  0.402496256
 860000000  0.007305695  0.408990528
 862000000  0.019233554  0.416497600
 864000000  0.033175764  0.423284192
 866000000  0.047609784  0.430333888
 868000000  0.062850872  0.434829504
 870000000  0.078092544  0.437258400
 872000000  0.090684704  0.439389216
 874000000  0.103112920  0.442074688
 876000000  0.115658984  0.445273344
 878000000  0.128481088  0.447331776
 880000000  0.141667552  0.450211104
 882000000  0.154834448  0.451878400
 884000000  0.168233248  0.453464448
 886000000  0.181944208  0.455599264
 888000000  0.196278160  0.456424608
 890000000  0.209855824  0.458337248
 892000000  0.225028384  0.459156960
 894000000  0.240536240  0.459848480
 896000000  0.255345200  0.457263968
 898000000  0.269742592  0.455570848
 900000000  0.284736960  0.452662272
 902000000  0.299479232  0.449801728
 904000000  0.313563136  0.446012352
 906000000  0.328573792  0.440745664
 908000000  0.341669504  0.435260800
 910000000  0.354722304  0.428396768
 912000000  0.366738144  0.422962176
 914000000  0.378603808  0.417014784
 916000000  0.390719136  0.410584800
 918000000  0.403158144  0.404258784
 920000000  0.415429344  0.397576320
 922000000  0.428039872  0.388322976
 924000000  0.439316384  0.378400192
 926000000  0.450360704  0.368046240
 928000000  0.459188672  0.358501088
 930000000  0.467366432  0.347602016
 932000000  0.474197504  0.336072672
 934000000  0.480456480  0.326300480
 936000000  0.485846336  0.316503456
 938000000  0.490159712  0.306960608
 940000000  0.494584640  0.297312288
 942000000  0.498240928  0.289833472
 944000000  0.502619040  0.281871552
 946000000  0.506588224  0.274870720
 948000000  0.511182176  0.267889712
 950000000  0.515608256  0.260843456
 952000000  0.519850144  0.254471280
 954000000  0.526096896  0.244905104
 956000000  0.531089536  0.237041424
 958000000  0.534816928  0.227808448
 960000000  0.537116096  0.217800304
 962000000  0.538025024  0.207559264
 964000000  0.537299456  0.199480288
 966000000  0.537269504  0.191646192
 968000000  0.536665632  0.187510032
 970000000  0.536576576  0.181885648
 972000000  0.537219008  0.178347712
 974000000  0.536478944  0.174161072
 976000000  0.536976192  0.170400752
 978000000  0.537414016  0.167272416
 980000000  0.539062720  0.164856464
 982000000  0.540290944  0.163514208
 984000000  0.542355136  0.161317808
 986000000  0.545515712  0.160334720
 988000000  0.548932224  0.158821472
 990000000  0.551106048  0.157651856
 992000000  0.555258880  0.157857968
 994000000  0.559519040  0.157263360
 996000000  0.564670592  0.157544608
 998000000  0.571178816  0.157067664
1000000000  0.578568128  0.156612128
!HI
1500000000 -0.546397120  0.604400384
1506500000 -0.501063456  0.641695360
1513000000 -0.452219200  0.675472768
1519500000 -0.400209408  0.705789952
1526000000 -0.344786912  0.732017216
1532500000 -0.287320672  0.755965440
1539000000 -0.226535072  0.773913280
1545500000 -0.162552544  0.786428608
1552000000 -0.100720696  0.791824000
1558500000 -0.037697492  0.790647232
1565000000  0.024299490  0.788145024
1571500000  0.083601760  0.778723648
1578000000  0.143329168  0.768920448
1584500000  0.201435808  0.753823424
1591000000  0.260286928  0.736512832
1597500000  0.327969600  0.715099968
1604000000  0.395707840  0.677899584
1610500000  0.455502464  0.622852864
1617000000  0.497203424  0.558470720
1623500000  0.524284608  0.501931488
1630000000  0.546990720  0.447396672
1636500000  0.563185024  0.401887232
1643000000  0.578975552  0.350386400
1649500000  0.592078272  0.300753568
1656000000  0.596257408  0.245099552
1662500000  0.596120768  0.201451440
1669000000  0.594627072  0.154456960
1675500000  0.591944768  0.111497880
1682000000  0.580121728  0.076709840
1688500000  0.569899264  0.035409232
1695000000  0.557010112 -0.004897299
1701500000  0.541583296 -0.043658908
1708000000  0.522511840 -0.080445120
1714500000  0.499631840 -0.114068240
1721000000  0.473799360 -0.143618848
1727500000  0.445604256 -0.167824288
1734000000  0.418830272 -0.188694368
1740500000  0.393596672 -0.208471328
1747000000  0.366790656 -0.226797904
1753500000  0.338187840 -0.243597408
1760000000  0.308655776 -0.256943376
1766500000  0.278556640 -0.266355344
1773000000  0.250858192 -0.274694848
1779500000  0.220264304 -0.283295104
1786000000  0.186549696 -0.289197632
1792500000  0.153873408 -0.288579840
1799000000  0.119922992 -0.284949440
1805500000  0.084346392 -0.275973664
1812000000  0.056136008 -0.260367744
1818500000  0.030257328 -0.243236880
1825000000  0.007407883 -0.225910592
1831500000 -0.015795842 -0.204280032
1838000000 -0.031607676 -0.180952352
1844500000 -0.045664064 -0.158979440
1851000000 -0.060916544 -0.132696656
1857500000 -0.069401544 -0.102121320
1864000000 -0.068784328 -0.071580936
1870500000 -0.063294060 -0.046217388
1877000000 -0.057331012 -0.023617916
1883500000 -0.048847864 -0.001477777
1890000000 -0.037883500  0.016110741
1896500000 -0.028889854  0.032689096
1903000000 -0.017101680  0.050717460
1909500000 -0.001128376  0.067118800
1916000000  0.018810900  0.078360800
1922500000  0.037140480  0.084937080
1929000000  0.053919324  0.085773656
1935500000  0.064409592  0.087369456
1942000000  0.077204320  0.090531560
1948500000  0.089071192  0.092186584
1955000000  0.099058664  0.094036032
1961500000  0.110544344  0.097867368
1968000000  0.124861936  0.099320920
1974500000  0.139165392  0.098764656
1981000000  0.151430496  0.095642176
1987500000  0.162236720  0.094457496
1994000000  0.174731568  0.092395176
2000500000  0.187945888  0.088585152
2007000000  0.197773600  0.081706104
2013500000  0.205795584  0.078400440
2020000000  0.216184992  0.077160504
2026500000  0.231228672  0.074948312
2033000000  0.248090096  0.067459808
2039500000  0.261446480  0.056058892
2046000000  0.273313888  0.045370252
2052500000  0.285018176  0.033490330
2059000000  0.296369376  0.019752896
2065500000  0.305961440  0.005282441
2072000000  0.314653120 -0.011710026
2078500000  0.322228864 -0.026544448
2085000000  0.332632544 -0.042644424
2091500000  0.337807040 -0.064699388
2098000000  0.342068928 -0.084539432
2104500000  0.345130592 -0.108088408
2111000000  0.344875840 -0.131873968
2117500000  0.339686432 -0.154897968
2124000000  0.337351296 -0.177268576
2130500000  0.328038208 -0.197846240
2137000000  0.318792448 -0.220388800
2143500000  0.309699808 -0.239098896
2150000000  0.298228864 -0.258804560
2156500000  0.286433632 -0.279176544
2163000000  0.273563872 -0.298040672
2169500000  0.258083648 -0.320066144
2176000000  0.241961760 -0.339638432
2182500000  0.224715344 -0.362213344
2189000000  0.204252240 -0.385632032
2195500000  0.179109600 -0.410232960
2202000000  0.144401440 -0.437567712
2208500000  0.101845824 -0.461676992
2215000000  0.049473592 -0.480146688
2221500000 -0.013760004 -0.485595360
2228000000 -0.082086640 -0.477466240
2234500000 -0.148502432 -0.450930944
2241000000 -0.209017072 -0.408114912
2247500000 -0.260190576 -0.352106144
2254000000 -0.295088544 -0.286786496
2260500000 -0.315925312 -0.219314512
2267000000 -0.323782144 -0.146718144
2273500000 -0.315552192 -0.080080672
2280000000 -0.294977248 -0.014381321
2286500000 -0.264264912  0.043586052
2293000000 -0.220829584  0.095740264
2299500000 -0.168078624  0.134705808
2306000000 -0.107962512  0.158424192
2312500000 -0.046537988  0.166795808
2319000000  0.013228749  0.156009264
2325500000  0.061552216  0.128202368
2332000000  0.093458736  0.092121424
2338500000  0.108018272  0.056570896
2345000000  0.111204792  0.029625980
2351500000  0.112250864  0.011273124
2358000000  0.112166592 -0.002516607
2364500000  0.115658888 -0.010581391
2371000000  0.124825368 -0.017834582
2377500000  0.141344288 -0.030380448
2384000000  0.162649808 -0.051755876
2390500000  0.180311712 -0.089962160
2397000000  0.187028784 -0.141997520
2403500000  0.169143488 -0.205610448
2410000000  0.124813552 -0.266490160
2416500000  0.057189440 -0.308400032
2423000000 -0.027499870 -0.325283712
2429500000 -0.113624672 -0.310849280
2436000000 -0.189427488 -0.268917888
2442500000 -0.244202768 -0.209550016
2449000000 -0.279039680 -0.139250880
2455500000 -0.293053856 -0.067175600
2462000000 -0.289968000 -0.001823733
2468500000 -0.274412832  0.057349180
2475000000 -0.249953088  0.108566816
2481500000 -0.217462864  0.152094240
2488000000 -0.179897408  0.185708736
2494500000 -0.145019456  0.209734224
2501000000 -0.107418896  0.229483584
2507500000 -0.070073184  0.243197392
2514000000 -0.036094528  0.250430704
2520500000 -0.000777437  0.256276672
2527000000  0.031183290  0.257632608
2533500000  0.060379388  0.254703312
2540000000  0.087082296  0.253220656
2546500000  0.118452840  0.248738144
2553000000  0.147079696  0.240409856
2559500000  0.173069808  0.228727840
2566000000  0.195871120  0.214217104
2572500000  0.219078288  0.199293232
2579000000  0.237850624  0.182919440
2585500000  0.256834752  0.167333072
2592000000  0.275667552  0.149255856
2598500000  0.292282400  0.129043000
2605000000  0.308625568  0.108148360
2611500000  0.322633216  0.084708120
2618000000  0.332537568  0.056142204
2624500000  0.339783968  0.029652078
2631000000  0.341585664 -0.003497692
2637500000  0.342263072 -0.028897968
2644000000  0.344905600 -0.054449628
2650500000  0.334260128 -0.088567720
2657000000  0.320920864 -0.118566456
2663500000  0.301513696 -0.147276496
2670000000  0.283476032 -0.168473408
2676500000  0.261756160 -0.190348640
2683000000  0.237395904 -0.211189984
2689500000  0.205012640 -0.227901600
2696000000  0.171679712 -0.235749824
2702500000  0.140574592 -0.244115264
2709000000  0.105528512 -0.242872416
2715500000  0.074029520 -0.236423056
2722000000  0.046129896 -0.222094816
2728500000  0.015337244 -0.210374128
2735000000 -0.012193852 -0.191524528
2741500000 -0.034415112 -0.167496480
2748000000 -0.052548616 -0.141350944
2754500000 -0.069135976 -0.112390448
2761000000 -0.080190432 -0.081369208
2767500000 -0.090055608 -0.049079164
2774000000 -0.090467096 -0.012541365
2780500000 -0.084999968  0.021370832
2787000000 -0.076106752  0.056539664
2793500000 -0.055950512  0.090927784
2800000000 -0.036276576  0.118942064
