!File created by NanoVNA
# Hz S RI R 50
!LO
 600000000  0.001822167  0.694051456
 602000000  0.007051731  0.689351040
 604000000  0.010029061  0.686176064
 606000000  0.012758811  0.685381056
 608000000  0.015471087  0.684919488
 610000000  0.019307306  0.686504960
 612000000  0.024936562  0.687574848
 614000000  0.029284682  0.687711424
 616000000  0.034099900  0.688834816
 618000000  0.038219616  0.690459520
 620000000  0.043981352  0.693299584
 622000000  0.049846176  0.695895040
 624000000  0.054990916  0.697440064
 626000000  0.063292280  0.700326784
 628000000  0.068887360  0.702600000
 630000000  0.074052760  0.705587584
 632000000  0.080834176  0.711150848
 634000000  0.088660272  0.716259904
 636000000  0.097538480  0.722618560
 638000000  0.107389104  0.728230976
 640000000  0.119366888  0.734259392
 642000000  0.132040904  0.737771968
 644000000  0.145156288  0.741125312
 646000000  0.158375168  0.744902144
 648000000  0.169643728  0.747708864
 650000000  0.185872048  0.750376320
 652000000  0.200320368  0.754112256
 654000000  0.216117984  0.755898432
 656000000  0.232622128  0.758666816
 658000000  0.250263248  0.759657472
 660000000  0.268443872  0.758358336
 662000000  0.285710240  0.756414208
 664000000  0.303324096  0.753033024
 666000000  0.319508960  0.750448832
 668000000  0.336366176  0.747078976
 670000000  0.353234720  0.744174272
 672000000  0.371777216  0.744562368
 674000000  0.390387744  0.737685952
 676000000  0.410113056  0.732171968
 678000000  0.430083808  0.726095360
 680000000  0.450194880  0.716871808
 682000000  0.469258464  0.707682240
 684000000  0.488111136  0.696782784
 686000000  0.506986336  0.686130496
 688000000  0.524982752  0.674688384
 690000000  0.543075136  0.661883648
 692000000  0.561238912  0.649107968
 694000000  0.578616896  0.635669632
 696000000  0.597417984  0.620600320
 698000000  0.615191360  0.606017088
 700000000  0.631701376  0.589436544
 702000000  0.646765440  0.572775424
 704000000  0.664356864  0.554399808
 706000000  0.679820928  0.536025600
 708000000  0.695803136  0.515567360
 710000000  0.711446144  0.494750592
 712000000  0.725205632  0.472589984
 714000000  0.740234048  0.448919424
 716000000  0.752659584  0.424155328
 718000000  0.764891200  0.398231936
 720000000  0.776839936  0.371937728
 722000000  0.784621568  0.344244960
 724000000  0.791988864  0.314028800
 726000000  0.798746624  0.286436384
 728000000  0.803966016  0.255425600
 730000000  0.807398336  0.224739840
 732000000  0.810059264  0.194256448
 734000000  0.810761152  0.160318864
 736000000  0.809226112  0.128322320
 738000000  0.806133952  0.093931760
 740000000  0.799620864  0.060283424
 742000000  0.792099136  0.025760334
 744000000  0.781282752 -0.007465064
 746000000  0.766720064 -0.041671520
 748000000  0.749680576 -0.073998448
 750000000  0.731156928 -0.105027464
 752000000  0.711957696 -0.133785544
 754000000  0.691176320 -0.163170288
 756000000  0.667004352 -0.191504752
 758000000  0.640406464 -0.218716624
 760000000  0.610410944 -0.242609200
 762000000  0.577633088 -0.264373776
 764000000  0.543625408 -0.281299392
 766000000  0.509590080 -0.295449632
 768000000  0.475040992 -0.306650272
 770000000  0.440666400 -0.314333792
 772000000  0.406990240 -0.318936768
 774000000  0.375743264 -0.321147904
 776000000  0.345604352 -0.322390272
 778000000  0.318499328 -0.315990912
 780000000  0.287042816 -0.317730944
 782000000  0.252394352 -0.318029568
 784000000  0.216535136 -0.312271968
 786000000  0.182251760 -0.300556704
 788000000  0.152058624 -0.285631328
 790000000  0.125983552 -0.270219776
 792000000  0.100504904 -0.253700384
 794000000  0.075442072 -0.236127312
 796000000  0.052782728 -0.215235440
 798000000  0.032836632 -0.192076624
 800000000  0.016831410 -0.167942848
 802000000  0.004084523 -0.143753904
 804000000 -0.006815018 -0.120670064
 806000000 -0.015699234 -0.096644664
 808000000 -0.022711978 -0.071566448
 810000000 -0.025894424 -0.045258208
 812000000 -0.023383628 -0.019340156
 814000000 -0.014077576  0.003122703
 816000000  0.001077987  0.017139786
 818000000  0.015432549  0.017143194
 820000000  0.016435035  0.004891384
 822000000 -0.002987400 -0.004040581
 824000000 -0.032652018  0.003844527
 826000000 -0.058200556  0.027900166
 828000000 -0.074581680  0.060933912
 830000000 -0.080300952  0.096745696
 832000000 -0.077599432  0.131745336
 834000000 -0.068311560  0.163118880
 836000000 -0.055133416  0.189790256
 838000000 -0.040562524  0.213515424
 840000000 -0.024392946  0.233799232
 842000000 -0.007401450  0.252456432
 844000000  0.010466319  0.268089808
 846000000  0.028653260  0.281483776
 848000000  0.046622732  0.293356544
 850000000  0.064747452  0.303671456
 852000000  0.084104696  0.312928512
 854000000  0.103868072  0.319327456
 856000000  0.122396280  0.323299232
 858000000  0.140808816  0.326344704
 860000000  0.157553552  0.328234240
 862000000  0.173959504  0.329445280
 864000000  0.189080016  0.328867808
 866000000  0.203532432  0.329569600
 868000000  0.216948880  0.330599680
 870000000  0.231207504  0.332079776
 872000000  0.246885136  0.333512960
 874000000  0.264316880  0.334296064
 876000000  0.282394112  0.332609568
 878000000  0.299060832  0.327961280
 880000000  0.314838912  0.323474752
 882000000  0.330770944  0.317511872
 884000000  0.345936448  0.311474848
 886000000  0.361542592  0.302669184
 888000000  0.376108608  0.293253600
 890000000  0.389026304  0.283357696
 892000000  0.400451232  0.273333568
 894000000  0.411250816  0.264232480
 896000000  0.421492992  0.252909008
 898000000  0.431115424  0.243714096
 900000000  0.441458688  0.233327312
 902000000  0.450919584  0.221992432
 904000000  0.458823808  0.209095696
 906000000  0.465879968  0.196642608
 908000000  0.471201760  0.183471360
 910000000  0.474133856  0.170671648
 912000000  0.475905344  0.159939472
 914000000  0.477821824  0.151263104
 916000000  0.480921792  0.143513776
 918000000  0.484725760  0.136087792
 920000000  0.489421536  0.128411752
 922000000  0.494148064  0.119740744
 924000000  0.498586464  0.109921392
 926000000  0.502491488  0.100355928
 928000000  0.506633568  0.091318264
 930000000  0.510121888  0.082307560
 932000000  0.514586336  0.071903680
 934000000  0.518762816  0.060964224
 936000000  0.522843904  0.049486400
 938000000  0.525041696  0.035829356
 940000000  0.526362464  0.023022500
 942000000  0.526916512  0.010185725
 944000000  0.525157440 -0.002705194
 946000000  0.522845920 -0.013226503
 948000000  0.520738368 -0.023011780
 950000000  0.518396448 -0.033926688
 952000000  0.517083360 -0.042044652
 954000000  0.514201472 -0.052928968
 956000000  0.512779840 -0.062174316
 958000000  0.511576832 -0.071446944
 960000000  0.509231872 -0.081354768
 962000000  0.506715776 -0.090703344
 964000000  0.503314784 -0.100801592
 966000000  0.498744064 -0.110024952
 968000000  0.495481664 -0.118619232
 970000000  0.491031744 -0.126670048
 972000000  0.487059072 -0.134127808
 974000000  0.482048736 -0.141704240
 976000000  0.477721632 -0.148343248
 978000000  0.473189824 -0.153641808
 980000000  0.470651616 -0.160495888
 982000000  0.467408896 -0.167458208
 984000000  0.463486624 -0.174660736
 986000000  0.459854304 -0.180590800
 988000000  0.454710112 -0.187992640
 990000000  0.450131936 -0.193357648
 992000000  0.446062176 -0.198237632
 994000000  0.441834496 -0.204485584
 996000000  0.438480160 -0.209489552
 998000000  0.434749888 -0.215492640
1000000000  0.431102080 -0.220948960
!File created by NanoVNA
# Hz S RI R 50
1500000000 -0.143390768  0.603385728
1506500000 -0.113310112  0.614333120
1513000000 -0.079533120  0.621964800
1519500000 -0.048316864  0.626705856
1526000000 -0.017968752  0.631739072
1532500000  0.017503184  0.635590720
1539000000  0.051163548  0.634053696
1545500000  0.085758616  0.630317568
1552000000  0.114690856  0.623808832
1558500000  0.143020416  0.617893824
1565000000  0.174087040  0.613985792
1571500000  0.204593440  0.606329856
1578000000  0.234509536  0.595630144
1584500000  0.266006256  0.583089152
1591000000  0.290970560  0.565787328
1597500000  0.316285760  0.552281344
1604000000  0.341787648  0.537121024
1610500000  0.367957088  0.518076896
1617000000  0.389634080  0.497396480
1623500000  0.407846304  0.482697664
1630000000  0.435311104  0.460827360
1636500000  0.452244096  0.448678624
1643000000  0.476027520  0.423587136
1649500000  0.493700192  0.399799264
1656000000  0.510684192  0.364290944
1662500000  0.524121280  0.343360096
1669000000  0.537742784  0.314291136
1675500000  0.551449024  0.284583008
1682000000  0.558114944  0.256091440
1688500000  0.559324416  0.235227600
1695000000  0.568077504  0.207057392
1701500000  0.578271296  0.174856240
1708000000  0.582342080  0.139960784
1714500000  0.581518464  0.109586960
1721000000  0.583928320  0.078248704
1727500000  0.585577984  0.042856176
1734000000  0.580443456  0.004040417
1740500000  0.570386624 -0.034036788
1747000000  0.555023744 -0.069136464
1753500000  0.535151424 -0.101032752
1760000000  0.516274688 -0.125586912
1766500000  0.497232512 -0.149679104
1773000000  0.480684256 -0.173151696
1779500000  0.465826080 -0.195063120
1786000000  0.444804832 -0.222664096
1792500000  0.424269536 -0.243359504
1799000000  0.401253728 -0.264462448
1805500000  0.376146752 -0.284300320
1812000000  0.349183040 -0.303127264
1818500000  0.322004256 -0.315520704
1825000000  0.297723872 -0.328934304
1831500000  0.269769120 -0.342540224
1838000000  0.240709488 -0.351365184
1844500000  0.213338240 -0.358851264
1851000000  0.185156800 -0.364820224
1857500000  0.159469072 -0.372563968
1864000000  0.130959736 -0.381025856
1870500000  0.096611056 -0.384515360
1877000000  0.064349636 -0.383325280
1883500000  0.034586944 -0.380893472
1890000000  0.005214099 -0.378750432
1896500000 -0.026629700 -0.372390656
1903000000 -0.054828684 -0.363457120
1909500000 -0.082987760 -0.356992064
1916000000 -0.115526416 -0.345228032
1922500000 -0.143886400 -0.332671872
1929000000 -0.175557264 -0.316846624
1935500000 -0.204103232 -0.298576608
1942000000 -0.234874864 -0.279104192
1948500000 -0.262739504 -0.254296448
1955000000 -0.287613120 -0.226566800
1961500000 -0.311795936 -0.193562528
1968000000 -0.331287136 -0.160821536
1974500000 -0.346213536 -0.125977608
1981000000 -0.357407392 -0.095836712
1987500000 -0.369568768 -0.062594148
1994000000 -0.381805184 -0.026842970
2000500000 -0.387289760  0.009866283
2007000000 -0.391907936  0.044933884
2013500000 -0.398394624  0.082828192
2020000000 -0.397078112  0.125581696
2026500000 -0.389168576  0.170312096
2033000000 -0.375375168  0.206819040
2039500000 -0.359172672  0.243139856
2046000000 -0.341335744  0.273797632
2052500000 -0.324217824  0.304805728
2059000000 -0.304261856  0.338537984
2065500000 -0.280319936  0.363599040
2072000000 -0.254593280  0.391076736
2078500000 -0.228233568  0.414167296
2085000000 -0.198979728  0.438377728
2091500000 -0.167678496  0.458880320
2098000000 -0.135541328  0.476561312
2104500000 -0.098639160  0.487696096
2111000000 -0.066837668  0.496447648
2117500000 -0.035337168  0.503716288
2124000000 -0.007513528  0.509133280
2130500000  0.032766660  0.517476608
2137000000  0.069391808  0.515963488
2143500000  0.103619952  0.517280288
2150000000  0.138349712  0.513524832
2156500000  0.173653424  0.508204288
2163000000  0.207214448  0.497265728
2169500000  0.242083856  0.484226816
2176000000  0.273571904  0.468764640
2182500000  0.302834208  0.451691136
2189000000  0.330350656  0.429924864
2195500000  0.352523936  0.414851008
2202000000  0.379323680  0.395989888
2208500000  0.406050464  0.376596768
2215000000  0.432216832  0.349434720
2221500000  0.454549888  0.321414208
2228000000  0.471870688  0.291718624
2234500000  0.489206688  0.262655680
2241000000  0.502712672  0.231189024
2247500000  0.514147392  0.197244480
2254000000  0.519484032  0.166894992
2260500000  0.526457504  0.131100032
2267000000  0.526534208  0.096050648
2273500000  0.524808832  0.066750756
2280000000  0.522784064  0.035978860
2286500000  0.521307840  0.006423247
2293000000  0.515431936 -0.027444272
2299500000  0.505870816 -0.057737460
2306000000  0.495099040 -0.090685416
2312500000  0.480677472 -0.122044208
2319000000  0.463739008 -0.151145040
2325500000  0.441342592 -0.179208336
2332000000  0.415453312 -0.205719856
2338500000  0.394377152 -0.225719504
2345000000  0.365515808 -0.250994928
2351500000  0.340887392 -0.267425888
2358000000  0.308737248 -0.286725760
2364500000  0.277490176 -0.301663264
2371000000  0.241545920 -0.316010496
2377500000  0.204366880 -0.321558112
2384000000  0.168801376 -0.323836128
2390500000  0.133044136 -0.320904640
2397000000  0.104997512 -0.314941376
2403500000  0.077440816 -0.307846048
2410000000  0.053845156 -0.303559872
2416500000  0.032565442 -0.299042080
2423000000  0.007032357 -0.296909696
2429500000 -0.019862172 -0.293108480
2436000000 -0.049295244 -0.287206080
2442500000 -0.081859112 -0.279823584
2449000000 -0.116597112 -0.264807408
2455500000 -0.150806832 -0.241104864
2462000000 -0.177245216 -0.212715824
2468500000 -0.199584880 -0.181340368
2475000000 -0.217811840 -0.147619328
2481500000 -0.231223504 -0.111889488
2488000000 -0.237800096 -0.076104944
2494500000 -0.240984928 -0.041088800
2501000000 -0.238963104 -0.006386400
2507500000 -0.232978352  0.024606084
2514000000 -0.227076064  0.056249860
2520500000 -0.215974304  0.088281424
2527000000 -0.201006624  0.114988400
2533500000 -0.182944000  0.139219584
2540000000 -0.163567200  0.162141008
2546500000 -0.142532064  0.179130304
2553000000 -0.121194376  0.195740064
2559500000 -0.101247544  0.209844640
2566000000 -0.080443992  0.222293280
2572500000 -0.054652804  0.233057344
2579000000 -0.028925906  0.238149696
2585500000 -0.005477042  0.239425872
2592000000  0.018785242  0.236242416
2598500000  0.037532864  0.231170368
2605000000  0.057021548  0.225904672
2611500000  0.075425032  0.218853536
2618000000  0.091775816  0.207555616
2624500000  0.104420320  0.195728176
2631000000  0.116317584  0.182032752
2637500000  0.125640096  0.169046992
2644000000  0.133368432  0.154253392
2650500000  0.136797056  0.139095120
2657000000  0.138853312  0.122183768
2663500000  0.136696128  0.104290344
2670000000  0.131699648  0.089150800
2676500000  0.125785456  0.075610320
2683000000  0.114061376  0.063089752
2689500000  0.104579432  0.052081352
2696000000  0.093911816  0.042117404
2702500000  0.079275432  0.031083558
2709000000  0.062165432  0.026555044
2715500000  0.044031696  0.028200486
2722000000  0.032670804  0.034457384
2728500000  0.018385714  0.039780176
2735000000  0.004175722  0.043933772
2741500000 -0.004465771  0.048711200
2748000000 -0.013923480  0.060820528
2754500000 -0.020665286  0.069982336
2761000000 -0.025694176  0.075452912
2767500000 -0.033821120  0.080901144
2774000000 -0.037412632  0.087987560
2780500000 -0.043204400  0.090718440
2787000000 -0.051831372  0.098970808
2793500000 -0.060815132  0.106925232
2800000000 -0.076252304  0.120070712
