!File created by NanoVNA
# Hz S RI R 50
!LO
 600000000  0.572610304  0.456352448
 602000000  0.575989696  0.440937440
 604000000  0.577062144  0.425801024
 606000000  0.577191744  0.411481600
 608000000  0.576593856  0.398121920
 610000000  0.576381248  0.386380160
 612000000  0.576584576  0.373244928
 614000000  0.575309824  0.362715296
 616000000  0.573848960  0.350975296
 618000000  0.571186304  0.341533184
 620000000  0.568454144  0.331359328
 622000000  0.565713024  0.323357120
 624000000  0.563524928  0.315280832
 626000000  0.561809280  0.309662944
 628000000  0.560511872  0.303228096
 630000000  0.557719744  0.296753184
 632000000  0.555043776  0.291562816
 634000000  0.552710208  0.288919424
 636000000  0.552402944  0.286892896
 638000000  0.553306112  0.285610368
 640000000  0.555806272  0.283990496
 642000000  0.558541376  0.281622752
 644000000  0.561056640  0.278224320
 646000000  0.564392000  0.275639232
 648000000  0.566421632  0.275196032
 650000000  0.573215104  0.273517120
 652000000  0.579314816  0.272317952
 654000000  0.585931072  0.270364896
 656000000  0.594883008  0.269132480
 658000000  0.604893440  0.267502720
 660000000  0.615511744  0.262772672
 662000000  0.626545664  0.257852112
 664000000  0.638721792  0.250719280
 666000000  0.650277312  0.242759248
 668000000  0.661347328  0.233491760
 670000000  0.671765952  0.221337440
 672000000  0.685781440  0.213506800
 674000000  0.692025984  0.200125520
 676000000  0.701380288  0.187979968
 678000000  0.710840640  0.175310256
 680000000  0.719635776  0.160632320
 682000000  0.728354880  0.146680224
 684000000  0.735154432  0.131442368
 686000000  0.743096832  0.116040984
 688000000  0.750656192  0.100592992
 690000000  0.756271808  0.082310120
 692000000  0.761700480  0.066276984
 694000000  0.765223296  0.049010732
 696000000  0.766836096  0.029886892
 698000000  0.772512448  0.014735501
 700000000  0.774873984 -0.001936783
 702000000  0.777555904 -0.018858830
 704000000  0.779775168 -0.037674512
 706000000  0.781967936 -0.055387112
 708000000  0.783170432 -0.074166656
 710000000  0.783318848 -0.092806304
 712000000  0.783779712 -0.109864192
 714000000  0.783649216 -0.128096760
 716000000  0.781964928 -0.147368672
 718000000  0.781101504 -0.165825552
 720000000  0.779182464 -0.186495200
 722000000  0.776528320 -0.205091168
 724000000  0.771952000 -0.225259104
 726000000  0.768389440 -0.244543920
 728000000  0.761930560 -0.263264768
 730000000  0.755368384 -0.282228832
 732000000  0.749006784 -0.299405408
 734000000  0.742377792 -0.317843776
 736000000  0.738882112 -0.333540544
 738000000  0.732061056 -0.353136160
 740000000  0.724274432 -0.370758016
 742000000  0.716202176 -0.388375520
 744000000  0.707329600 -0.407071776
 746000000  0.698040960 -0.425051296
 748000000  0.687850880 -0.442755392
 750000000  0.676158784 -0.461294848
 752000000  0.664797760 -0.479294848
 754000000  0.652415488 -0.495870048
 756000000  0.638833408 -0.513197312
 758000000  0.625184512 -0.529002304
 760000000  0.612470272 -0.545195840
 762000000  0.596665472 -0.559971648
 764000000  0.582128320 -0.575563968
 766000000  0.566628032 -0.589916864
 768000000  0.550848448 -0.604716288
 770000000  0.533285088 -0.618774336
 772000000  0.516017152 -0.631051072
 774000000  0.498713888 -0.644677504
 776000000  0.481169952 -0.656469248
 778000000  0.462633376 -0.667784768
 780000000  0.444124800 -0.678979712
 782000000  0.424876768 -0.688193344
 784000000  0.406410400 -0.697002880
 786000000  0.386309152 -0.705707776
 788000000  0.366590240 -0.714395008
 790000000  0.346790464 -0.722949888
 792000000  0.326468512 -0.728617856
 794000000  0.306757056 -0.735160576
 796000000  0.288953440 -0.740120384
 798000000  0.268816064 -0.745028928
 800000000  0.249131536 -0.750752064
 802000000  0.228634368 -0.754842112
 804000000  0.207686720 -0.759546496
 806000000  0.188572752 -0.761586496
 808000000  0.167208432 -0.765464128
 810000000  0.146602992 -0.767855296
 812000000  0.126253504 -0.768626368
 814000000  0.105230384 -0.769838208
 816000000  0.084971104 -0.769360576
 818000000  0.063473924 -0.768685056
 820000000  0.043822320 -0.767803136
 822000000  0.023808112 -0.766423552
 824000000  0.003661742 -0.763326080
 826000000 -0.015624172 -0.761314752
 828000000 -0.035371920 -0.757728064
 830000000 -0.055689788 -0.754713856
 832000000 -0.075414608 -0.751012096
 834000000 -0.095696936 -0.747484736
 836000000 -0.114032880 -0.742531392
 838000000 -0.135478592 -0.736805696
 840000000 -0.155982320 -0.730284160
 842000000 -0.175024752 -0.723364864
 844000000 -0.194343776 -0.715527104
 846000000 -0.214487296 -0.706857856
 848000000 -0.231145216 -0.698562240
 850000000 -0.250104400 -0.689111872
 852000000 -0.267319232 -0.679649472
 854000000 -0.285435712 -0.669350208
 856000000 -0.302311712 -0.658368256
 858000000 -0.320689696 -0.647802752
 860000000 -0.337570592 -0.635715072
 862000000 -0.354204000 -0.624112512
 864000000 -0.371618240 -0.609638208
 866000000 -0.387257376 -0.597354816
 868000000 -0.403192288 -0.583411648
 870000000 -0.418674720 -0.569122880
 872000000 -0.433325760 -0.554955648
 874000000 -0.448774080 -0.539567680
 876000000 -0.463378624 -0.523755200
 878000000 -0.477110240 -0.505673696
 880000000 -0.489792608 -0.488095776
 882000000 -0.502417312 -0.469165632
 884000000 -0.514380768 -0.451070624
 886000000 -0.524082496 -0.432824960
 888000000 -0.534091648 -0.414204352
 890000000 -0.543184000 -0.396093056
 892000000 -0.551474624 -0.377702816
 894000000 -0.561664832 -0.359524544
 896000000 -0.568905792 -0.336968128
 898000000 -0.576378112 -0.318176096
 900000000 -0.583455872 -0.298504352
 902000000 -0.589707904 -0.275978560
 904000000 -0.595415488 -0.254937984
 906000000 -0.600229696 -0.232480656
 908000000 -0.603314176 -0.210143712
 910000000 -0.605689984 -0.187152336
 912000000 -0.607403648 -0.162828784
 914000000 -0.607369600 -0.141572048
 916000000 -0.606499328 -0.117721400
 918000000 -0.604238400 -0.094259512
 920000000 -0.600049408 -0.071625096
 922000000 -0.594616768 -0.049114024
 924000000 -0.588166784 -0.028545966
 926000000 -0.581536512 -0.007591584
 928000000 -0.574300864  0.011881638
 930000000 -0.565922048  0.029861456
 932000000 -0.556806912  0.049648880
 934000000 -0.548033856  0.067274104
 936000000 -0.539599104  0.085231920
 938000000 -0.528590016  0.101243248
 940000000 -0.516899648  0.118188184
 942000000 -0.504709728  0.134246928
 944000000 -0.492252736  0.149923184
 946000000 -0.479016544  0.163998640
 948000000 -0.465762336  0.176868432
 950000000 -0.451094464  0.189741680
 952000000 -0.436922880  0.192972160
 954000000 -0.422931648  0.203563216
 956000000 -0.409194592  0.214181744
 958000000 -0.394851488  0.223938384
 960000000 -0.379255424  0.232668864
 962000000 -0.365374656  0.240451456
 964000000 -0.350338240  0.248343312
 966000000 -0.334918048  0.254583632
 968000000 -0.319968608  0.259901680
 970000000 -0.304690400  0.264524544
 972000000 -0.290209120  0.268144336
 974000000 -0.275979328  0.270807200
 976000000 -0.261474368  0.273025792
 978000000 -0.248126112  0.275457024
 980000000 -0.235170144  0.275982880
 982000000 -0.222823840  0.276394304
 984000000 -0.210612672  0.277085504
 986000000 -0.198565312  0.277640960
 988000000 -0.186441680  0.277520672
 990000000 -0.174577984  0.276178368
 992000000 -0.163719904  0.275692480
 994000000 -0.153418608  0.274463520
 996000000 -0.143002944  0.273700512
 998000000 -0.132902984  0.273330880
1000000000 -0.122340728  0.272732608
!HI
1500000000  0.446037792 -0.201910896
1506500000  0.424450816 -0.223098400
1513000000  0.405876576 -0.243963360
1519500000  0.385096000 -0.267801696
1526000000  0.363086432 -0.291703840
1532500000  0.338127360 -0.315940640
1539000000  0.311466144 -0.340569184
1545500000  0.280673760 -0.365305536
1552000000  0.245777600 -0.389430144
1558500000  0.207770816 -0.410021536
1565000000  0.165230272 -0.428161760
1571500000  0.127319832 -0.435479328
1578000000  0.081816144 -0.445529344
1584500000  0.034768036 -0.450956160
1591000000 -0.013424011 -0.452892736
1597500000 -0.063074924 -0.449206784
1604000000 -0.111790648 -0.442118112
1610500000 -0.161758624 -0.427515104
1617000000 -0.209141136 -0.409372160
1623500000 -0.256787296 -0.382917024
1630000000 -0.303284576 -0.349136992
1636500000 -0.339244192 -0.314518976
1643000000 -0.371996128 -0.270617984
1649500000 -0.397434080 -0.226139872
1656000000 -0.420125728 -0.174887392
1662500000 -0.434276864 -0.124524304
1669000000 -0.441332288 -0.072257512
1675500000 -0.444201728 -0.020440504
1682000000 -0.440067872  0.032713876
1688500000 -0.428571520  0.086093728
1695000000 -0.408239008  0.138278064
1701500000 -0.381567680  0.182674896
1708000000 -0.351315168  0.222802128
1714500000 -0.319631264  0.258537232
1721000000 -0.282774048  0.292368480
1727500000 -0.244849104  0.319376320
1734000000 -0.202699584  0.343174688
1740500000 -0.160249744  0.359478400
1747000000 -0.120727592  0.370799392
1753500000 -0.078864336  0.381194432
1760000000 -0.036634420  0.388369632
1766500000  0.007101522  0.390514944
1773000000  0.052377368  0.386361696
1779500000  0.094213552  0.375909344
1786000000  0.135027424  0.360855744
1792500000  0.171161840  0.341236928
1799000000  0.205156064  0.317015680
1805500000  0.235287200  0.289093984
1812000000  0.262770624  0.256449104
1818500000  0.284950240  0.223321280
1825000000  0.303699840  0.186902752
1831500000  0.315845312  0.145293824
1838000000  0.322353728  0.106374648
1844500000  0.325976928  0.066823028
1851000000  0.326242240  0.024706292
1857500000  0.320394880 -0.018641632
1864000000  0.306101248 -0.059885440
1870500000  0.288101824 -0.098561424
1877000000  0.265775648 -0.134988640
1883500000  0.240192496 -0.167346512
1890000000  0.210673744 -0.198744816
1896500000  0.177056192 -0.221851152
1903000000  0.144595520 -0.241002288
1909500000  0.113100616 -0.258657728
1916000000  0.076980528 -0.272057504
1922500000  0.044108628 -0.283231424
1929000000  0.008038761 -0.291434816
1935500000 -0.028525880 -0.296385472
1942000000 -0.067427168 -0.297078976
1948500000 -0.101843856 -0.291636224
1955000000 -0.136702368 -0.286214048
1961500000 -0.172532208 -0.273257280
1968000000 -0.202742048 -0.259043216
1974500000 -0.233084944 -0.242708512
1981000000 -0.261547984 -0.224557408
1987500000 -0.288950240 -0.200478512
1994000000 -0.314937312 -0.177296640
2000500000 -0.338759648 -0.148206080
2007000000 -0.359651232 -0.117166056
2013500000 -0.376427968 -0.081617864
2020000000 -0.386605920 -0.045734204
2026500000 -0.394654944 -0.007566408
2033000000 -0.399824128  0.025763214
2039500000 -0.401805824  0.062080616
2046000000 -0.400192512  0.098469344
2052500000 -0.395191872  0.135784032
2059000000 -0.386752256  0.170338176
2065500000 -0.375366944  0.204902336
2072000000 -0.360915488  0.238588240
2078500000 -0.343165184  0.266543328
2085000000 -0.323308064  0.294964736
2091500000 -0.301365248  0.319859360
2098000000 -0.281683616  0.339902624
2104500000 -0.257878368  0.360527680
2111000000 -0.233834960  0.378627648
2117500000 -0.207584672  0.392503456
2124000000 -0.185161264  0.398955808
2130500000 -0.160341504  0.408130240
2137000000 -0.137945392  0.411451296
2143500000 -0.119973744  0.418161600
2150000000 -0.100314520  0.422225312
2156500000 -0.075852256  0.424614304
2163000000 -0.058504256  0.424344768
2169500000 -0.040356080  0.424572736
2176000000 -0.026328966  0.422607072
2182500000 -0.007638290  0.421668736
2189000000  0.008983114  0.419682240
2195500000  0.023744984  0.416257408
2202000000  0.037578896  0.412422304
2208500000  0.051349240  0.411820064
2215000000  0.067061612  0.410585344
2221500000  0.084077616  0.406573344
2228000000  0.097787064  0.402994976
2234500000  0.116534912  0.399404000
2241000000  0.131544624  0.392419136
2247500000  0.145401792  0.382615104
2254000000  0.156199888  0.374633824
2260500000  0.170179360  0.369037312
2267000000  0.184456352  0.360824800
2273500000  0.195453264  0.353153696
2280000000  0.207812944  0.346347360
2286500000  0.215770288  0.340108736
2293000000  0.226396224  0.334362688
2299500000  0.238976208  0.331715904
2306000000  0.252441408  0.325467904
2312500000  0.264668352  0.320301696
2319000000  0.278475680  0.314595328
2325500000  0.292772096  0.309012800
2332000000  0.310632096  0.301412736
2338500000  0.327264224  0.292544192
2345000000  0.344502464  0.277861920
2351500000  0.358367072  0.266858752
2358000000  0.372688896  0.252820976
2364500000  0.387509536  0.236247280
2371000000  0.402141728  0.218058224
2377500000  0.414876416  0.196240672
2384000000  0.425757728  0.178535296
2390500000  0.435509728  0.156465808
2397000000  0.441916384  0.133878816
2403500000  0.448181824  0.106804232
2410000000  0.451908512  0.084595736
2416500000  0.455771104  0.059892932
2423000000  0.457392864  0.034973468
2429500000  0.456775680  0.008176982
2436000000  0.453818432 -0.016236030
2442500000  0.453487552 -0.044114300
2449000000  0.449429376 -0.070122344
2455500000  0.443293280 -0.101618168
2462000000  0.434411296 -0.127706872
2468500000  0.423738656 -0.155824432
2475000000  0.411010240 -0.181617808
2481500000  0.395940032 -0.209360672
2488000000  0.380114528 -0.235107456
2494500000  0.361765408 -0.259039440
2501000000  0.341341600 -0.282671168
2507500000  0.320084800 -0.302866240
2514000000  0.295647584 -0.323937504
2520500000  0.271500960 -0.342056192
2527000000  0.248008544 -0.357810720
2533500000  0.221016256 -0.373724288
2540000000  0.193033392 -0.387106048
2546500000  0.165730992 -0.400484608
2553000000  0.133861576 -0.407751712
2559500000  0.103200704 -0.414472384
2566000000  0.071448960 -0.416189152
2572500000  0.042998164 -0.420142816
2579000000  0.009427965 -0.419306592
2585500000 -0.021535530 -0.415398784
2592000000 -0.050858004 -0.411247584
2598500000 -0.084087864 -0.406060704
2605000000 -0.111751640 -0.395935232
2611500000 -0.142604832 -0.389379488
2618000000 -0.172558704 -0.378068064
2624500000 -0.201693968 -0.366200800
2631000000 -0.231326656 -0.350436320
2637500000 -0.257919216 -0.334456832
2644000000 -0.283253056 -0.317267296
2650500000 -0.311071264 -0.294646816
2657000000 -0.336495456 -0.273098592
2663500000 -0.363028416 -0.248893312
2670000000 -0.384831008 -0.222128752
2676500000 -0.404119776 -0.194542784
2683000000 -0.422152512 -0.170357216
2689500000 -0.440454976 -0.140980112
2696000000 -0.454488800 -0.110145832
2702500000 -0.466379648 -0.080662144
2709000000 -0.480254656 -0.046607520
2715500000 -0.489341600 -0.017319520
2722000000 -0.494895072  0.013552224
2728500000 -0.498289184  0.055292764
2735000000 -0.499977312  0.084932000
2741500000 -0.492134496  0.120163944
2748000000 -0.492240320  0.147326352
2754500000 -0.485173088  0.182158400
2761000000 -0.472584128  0.219001744
2767500000 -0.463354304  0.241516528
2774000000 -0.451708960  0.268796512
2780500000 -0.436688544  0.286115936
2787000000 -0.419919584  0.315954400
2793500000 -0.399554560  0.344149344
2800000000 -0.387969024  0.374067744
