!File created by NanoVNA
# Hz S RI R 50
 600000000  0.641832256  0.367267840
 602000000  0.651799872  0.347611072
 604000000  0.661601664  0.325316224
 606000000  0.671712448  0.303478784
 608000000  0.681530240  0.279988896
 610000000  0.691116224  0.255453968
 612000000  0.699929472  0.228841520
 614000000  0.706363520  0.201877952
 616000000  0.711800384  0.174450224
 618000000  0.716803520  0.148777744
 620000000  0.721958464  0.120712592
 622000000  0.727147648  0.091390448
 624000000  0.730931968  0.058668612
 626000000  0.731124352  0.024695112
 628000000  0.728291648 -0.008895549
 630000000  0.722829568 -0.041573368
 632000000  0.716225984 -0.074125984
 634000000  0.709955264 -0.106608056
 636000000  0.703284032 -0.140176576
 638000000  0.693300544 -0.175048896
 640000000  0.681146176 -0.210823216
 642000000  0.664101056 -0.246802672
 644000000  0.646132800 -0.280809888
 646000000  0.625159488 -0.315084640
 648000000  0.602757184 -0.346132448
 650000000  0.576257536 -0.379848832
 652000000  0.549023104 -0.410878496
 654000000  0.519404544 -0.441846240
 656000000  0.485645728 -0.472047680
 658000000  0.450343648 -0.499573664
 660000000  0.410599808 -0.526147008
 662000000  0.366910528 -0.549024384
 664000000  0.320832064 -0.568263104
 666000000  0.272646208 -0.581785600
 668000000  0.222656768 -0.591393600
 670000000  0.171921920 -0.597582912
 672000000  0.121355640 -0.598007296
 674000000  0.071919192 -0.593404160
 676000000  0.023123558 -0.584582848
 678000000 -0.023917692 -0.572975168
 680000000 -0.069966752 -0.557578176
 682000000 -0.115309672 -0.538639488
 684000000 -0.157373904 -0.515004928
 686000000 -0.197589952 -0.488072640
 688000000 -0.233494304 -0.458755168
 690000000 -0.266823200 -0.425951456
 692000000 -0.295838432 -0.392980352
 694000000 -0.320442368 -0.358531424
 696000000 -0.344201312 -0.322102912
 698000000 -0.363928992 -0.287343552
 700000000 -0.381429696 -0.250776112
 702000000 -0.389934688 -0.217048080
 704000000 -0.401152384 -0.178863472
 706000000 -0.409674080 -0.140742784
 708000000 -0.414703328 -0.103909168
 710000000 -0.417131680 -0.066881308
 712000000 -0.417071680 -0.031211428
 714000000 -0.413814848  0.003767579
 716000000 -0.408157216  0.037287160
 718000000 -0.400155392  0.069307792
 720000000 -0.390216832  0.098760296
 722000000 -0.379602816  0.126047176
 724000000 -0.368024128  0.151523312
 726000000 -0.356479264  0.174918912
 728000000 -0.344688288  0.198004704
 730000000 -0.332947264  0.220411472
 732000000 -0.321814688  0.242633376
 734000000 -0.308453664  0.266111376
 736000000 -0.292920288  0.289157568
 738000000 -0.275460448  0.311310720
 740000000 -0.255040704  0.331260640
 742000000 -0.232031008  0.347556640
 744000000 -0.209345232  0.359508608
 746000000 -0.189595584  0.369375424
 748000000 -0.171562176  0.377868704
 750000000 -0.154398432  0.386796512
 752000000 -0.137773936  0.399205312
 754000000 -0.121062960  0.408056352
 756000000 -0.103463392  0.416840608
 758000000 -0.086541768  0.427163456
 760000000 -0.067360720  0.436882016
 762000000 -0.046655868  0.445322560
 764000000 -0.024437330  0.451992544
 766000000 -0.001606496  0.456533728
 768000000  0.020381190  0.458439872
 770000000  0.042074884  0.458359840
 772000000  0.061792920  0.457162976
 774000000  0.081776304  0.453933792
 776000000  0.098592984  0.450735328
 778000000  0.114336184  0.447262016
 780000000  0.129098136  0.445637024
 782000000  0.145086720  0.444931872
 784000000  0.163161152  0.443596064
 786000000  0.181847088  0.439593984
 788000000  0.199142240  0.433197920
 790000000  0.214136480  0.427003648
 792000000  0.228374016  0.421438816
 794000000  0.242949504  0.416880736
 796000000  0.258137584  0.412714304
 798000000  0.274495680  0.406184640
 800000000  0.289371936  0.398483808
 802000000  0.303967552  0.389577088
 804000000  0.316892896  0.380360192
 806000000  0.327159360  0.373376416
 808000000  0.340173024  0.366505728
 810000000  0.353050688  0.359994048
 812000000  0.365884192  0.352604672
 814000000  0.379110208  0.343797728
 816000000  0.391810592  0.335799296
 818000000  0.403972832  0.327494400
 820000000  0.417360608  0.320368672
 822000000  0.432623456  0.311627072
 824000000  0.447555584  0.300443456
 826000000  0.462551552  0.287986592
 828000000  0.477660704  0.273557952
 830000000  0.491330784  0.257509984
 832000000  0.504153184  0.239782720
 834000000  0.514147296  0.221724592
 836000000  0.522500640  0.203308080
 838000000  0.529328992  0.184614000
 840000000  0.535186240  0.165790640
 842000000  0.539882496  0.148822336
 844000000  0.543894080  0.131645192
 846000000  0.546814528  0.114303816
 848000000  0.549904576  0.096504808
 850000000  0.551458304  0.079960488
 852000000  0.552212352  0.063285104
 854000000  0.551336960  0.046912068
 856000000  0.550201088  0.030766136
 858000000  0.547992896  0.015743316
 860000000  0.545090432  0.001702614
 862000000  0.543343616 -0.011251032
 864000000  0.540164480 -0.023033538
 866000000  0.538246848 -0.035193160
 868000000  0.536477280 -0.046234444
 870000000  0.535064640 -0.057672532
 872000000  0.534877184 -0.069638208
 874000000  0.535370752 -0.082032648
 876000000  0.533874464 -0.095214472
 878000000  0.530539808 -0.107914992
 880000000  0.527532928 -0.118644272
 882000000  0.524516160 -0.130599648
 884000000  0.522015616 -0.142284080
 886000000  0.518964160 -0.153825744
 888000000  0.514655904 -0.165377216
 890000000  0.510930848 -0.174854528
 892000000  0.507232672 -0.184674992
 894000000  0.504773312 -0.193115216
 896000000  0.501036160 -0.202656384
 898000000  0.499803616 -0.211032464
 900000000  0.498184672 -0.221763776
 902000000  0.494394208 -0.233039488
 904000000  0.490441312 -0.243509360
 906000000  0.485033376 -0.254911328
 908000000  0.479778720 -0.263837136
 910000000  0.473807488 -0.271814016
 912000000  0.469281600 -0.278805344
 914000000  0.466237472 -0.285720192
 916000000  0.462541152 -0.294421280
 918000000  0.459570400 -0.302659072
 920000000  0.456950176 -0.311095104
 922000000  0.453015552 -0.321058624
 924000000  0.448786464 -0.330507200
 926000000  0.445379424 -0.340179232
 928000000  0.441758112 -0.350079968
 930000000  0.437356704 -0.359234528
 932000000  0.432920768 -0.371762464
 934000000  0.427538048 -0.383394816
 936000000  0.421548800 -0.394442016
 938000000  0.413222016 -0.404849312
 940000000  0.404979040 -0.414202144
 942000000  0.397400896 -0.424413632
 944000000  0.389406720 -0.432931040
 946000000  0.384041952 -0.441642816
 948000000  0.377464608 -0.451460864
 950000000  0.369382496 -0.462852288
 952000000  0.361374720 -0.473361792
 954000000  0.351294528 -0.483886240
 956000000  0.339631648 -0.493719488
 958000000  0.328716800 -0.502085504
 960000000  0.315436576 -0.508894816
 962000000  0.303657792 -0.514232800
 964000000  0.292660480 -0.517722656
 966000000  0.282794848 -0.519579008
 968000000  0.273578080 -0.521640064
 970000000  0.266956384 -0.522734464
 972000000  0.262581952 -0.524617440
 974000000  0.262878544 -0.527371392
 976000000  0.262384416 -0.536580576
 978000000  0.259362960 -0.549336640
 980000000  0.253139824 -0.564625856
 982000000  0.244294976 -0.578654016
 984000000  0.232414512 -0.591048576
 986000000  0.220080816 -0.603836736
 988000000  0.206114608 -0.613353728
 990000000  0.192280208 -0.623188736
 992000000  0.178903024 -0.631008256
 994000000  0.163214832 -0.639512192
 996000000  0.147925664 -0.645679808
 998000000  0.134235392 -0.653038784
1000000000  0.118615944 -0.657770048
!HI
1500000000  0.377589888  0.430833760
1506500000  0.400815328  0.419484224
1513000000  0.431672224  0.399892192
1519500000  0.453565696  0.381675968
1526000000  0.475582784  0.361970976
1532500000  0.498891744  0.337372352
1539000000  0.518345120  0.309921888
1545500000  0.534504960  0.280358656
1552000000  0.548020544  0.249385744
1558500000  0.558810688  0.217483680
1565000000  0.568039040  0.184377136
1571500000  0.573126080  0.150355936
1578000000  0.576867584  0.116087992
1584500000  0.577327104  0.080717648
1591000000  0.569710464  0.044841068
1597500000  0.564974976  0.011219625
1604000000  0.555070016 -0.022247926
1610500000  0.540646464 -0.055145876
1617000000  0.522399840 -0.084153496
1623500000  0.503912448 -0.100292936
1630000000  0.488343456 -0.128937320
1636500000  0.474897760 -0.148813216
1643000000  0.455568256 -0.176690640
1649500000  0.432302560 -0.202134528
1656000000  0.406386528 -0.221640064
1662500000  0.380307200 -0.242464928
1669000000  0.353531712 -0.259300528
1675500000  0.325568160 -0.274691616
1682000000  0.297103200 -0.285797408
1688500000  0.269172832 -0.296363616
1695000000  0.241102480 -0.305776192
1701500000  0.211961472 -0.316147712
1708000000  0.177045872 -0.324370080
1714500000  0.140161520 -0.324606112
1721000000  0.107323064 -0.323193472
1727500000  0.075019528 -0.320340160
1734000000  0.037080984 -0.314566752
1740500000 -0.000962908 -0.302488736
1747000000 -0.036366300 -0.282584384
1753500000 -0.067876088 -0.256417600
1760000000 -0.092585448 -0.225960800
1766500000 -0.109546480 -0.196131408
1773000000 -0.123318712 -0.166117680
1779500000 -0.132621896 -0.136606752
1786000000 -0.137922848 -0.107386824
1792500000 -0.138850240 -0.080646960
1799000000 -0.137066192 -0.054818648
1805500000 -0.133564680 -0.030693352
1812000000 -0.129146544 -0.004550433
1818500000 -0.114772552  0.018552344
1825000000 -0.100293216  0.033882276
1831500000 -0.086189848  0.046972416
1838000000 -0.071831552  0.057043084
1844500000 -0.058236672  0.064716160
1851000000 -0.043981116  0.070971224
1857500000 -0.030396172  0.073277416
1864000000 -0.018156738  0.072481160
1870500000 -0.009107533  0.069573408
1877000000 -0.003325185  0.068070248
1883500000  0.003679211  0.066315392
1890000000  0.007975431  0.063165776
1896500000  0.010863713  0.060613760
1903000000  0.013282969  0.058070024
1909500000  0.014614983  0.055118928
1916000000  0.013514382  0.051675332
1922500000  0.009989423  0.049882736
1929000000  0.006283942  0.050815200
1935500000  0.002389696  0.052896964
1942000000 -0.002682882  0.054177916
1948500000 -0.009686051  0.059762900
1955000000 -0.015069309  0.069093440
1961500000 -0.016531962  0.081927080
1968000000 -0.014961254  0.094028664
1974500000 -0.008762435  0.104511472
1981000000 -0.002539557  0.112220160
1987500000  0.003162107  0.116816832
1994000000  0.004423614  0.123776672
2000500000  0.009320004  0.133209688
2007000000  0.015145104  0.142249104
2013500000  0.021696444  0.153003744
2020000000  0.034063660  0.164046640
2026500000  0.050230312  0.171472880
2033000000  0.066055008  0.174007584
2039500000  0.080451368  0.173571104
2046000000  0.092420312  0.171009728
2052500000  0.102457880  0.170491632
2059000000  0.115373720  0.171460944
2065500000  0.127034504  0.169628944
2072000000  0.140039232  0.167348960
2078500000  0.151800304  0.163220880
2085000000  0.164330224  0.160308016
2091500000  0.179086496  0.156108592
2098000000  0.195524960  0.151876928
2104500000  0.209623104  0.137588496
2111000000  0.218139952  0.124666408
2117500000  0.225341360  0.114361184
2124000000  0.234319728  0.105296264
2130500000  0.248774560  0.097682592
2137000000  0.260729552  0.082929168
2143500000  0.270436704  0.064850940
2150000000  0.277953504  0.045717100
2156500000  0.282440288  0.027157456
2163000000  0.285670432  0.008911648
2169500000  0.287734336 -0.010556573
2176000000  0.288128480 -0.029883002
2182500000  0.285728832 -0.049517552
2189000000  0.280616736 -0.068636336
2195500000  0.274695968 -0.084159872
2202000000  0.271399040 -0.100586992
2208500000  0.266547984 -0.119099416
2215000000  0.258297392 -0.141390640
2221500000  0.243985696 -0.160149216
2228000000  0.227140512 -0.175514608
2234500000  0.211219872 -0.188272048
2241000000  0.192355360 -0.200752192
2247500000  0.170625008 -0.211222848
2254000000  0.150198928 -0.215828144
2260500000  0.127951504 -0.218649360
2267000000  0.106758424 -0.218083424
2273500000  0.088849056 -0.214234032
2280000000  0.072128640 -0.210955792
2286500000  0.058851612 -0.208584928
2293000000  0.043924132 -0.205926496
2299500000  0.024595446 -0.201820160
2306000000  0.007688578 -0.195268816
2312500000 -0.008769185 -0.185464336
2319000000 -0.020397088 -0.174643056
2325500000 -0.032773372 -0.162984240
2332000000 -0.041383820 -0.150360576
2338500000 -0.046282344 -0.140594768
2345000000 -0.053159204 -0.132407072
2351500000 -0.057886852 -0.124652360
2358000000 -0.062318036 -0.117941584
2364500000 -0.068836224 -0.114323784
2371000000 -0.079202240 -0.112453888
2377500000 -0.097158376 -0.104105568
2384000000 -0.112146608 -0.086946696
2390500000 -0.118796144 -0.062876380
2397000000 -0.115656048 -0.042396344
2403500000 -0.108717992 -0.028376822
2410000000 -0.103269128 -0.019695246
2416500000 -0.100264384 -0.011266919
2423000000 -0.097789264 -0.001950468
2429500000 -0.093502280  0.005907968
2436000000 -0.091472408  0.010897801
2442500000 -0.090542344  0.017852114
2449000000 -0.089916168  0.027348048
2455500000 -0.086514568  0.037073964
2462000000 -0.083122552  0.045939580
2468500000 -0.077573984  0.054960904
2475000000 -0.071670296  0.064556072
2481500000 -0.063913844  0.074685632
2488000000 -0.054070140  0.083347192
2494500000 -0.043101132  0.093202864
2501000000 -0.028404838  0.100215504
2507500000 -0.013904038  0.105680472
2514000000  0.002124935  0.108536176
2520500000  0.018936644  0.108988472
2527000000  0.035321488  0.105927408
2533500000  0.049097296  0.100878864
2540000000  0.063572860  0.094634216
2546500000  0.077128328  0.085500744
2553000000  0.089039568  0.078058136
2559500000  0.101164888  0.065885200
2566000000  0.109900800  0.051694572
2572500000  0.117516416  0.036993996
2579000000  0.121399768  0.020155332
2585500000  0.120966528  0.004650078
2592000000  0.119984080 -0.010553619
2598500000  0.116322008 -0.023656500
2605000000  0.113482832 -0.036800556
2611500000  0.105625400 -0.049717872
2618000000  0.097327608 -0.061267844
2624500000  0.087584688 -0.072079728
2631000000  0.073710168 -0.082840032
2637500000  0.062009440 -0.085013040
2644000000  0.050773096 -0.087386648
2650500000  0.035318324 -0.089195912
2657000000  0.024316380 -0.090944384
2663500000  0.012117510 -0.091531232
2670000000  0.002669635 -0.089193456
2676500000 -0.007323934 -0.085202944
2683000000 -0.016581616 -0.081349120
2689500000 -0.024230106 -0.076817904
2696000000 -0.028763880 -0.076481608
2702500000 -0.035247916 -0.073774760
2709000000 -0.041882880 -0.069179432
2715500000 -0.045208952 -0.065941872
2722000000 -0.044055800 -0.062400620
2728500000 -0.052418252 -0.063182048
2735000000 -0.058881936 -0.063654764
2741500000 -0.062762432 -0.062775500
2748000000 -0.069587936 -0.063885740
2754500000 -0.079295048 -0.063694508
2761000000 -0.087224400 -0.061193096
2767500000 -0.099508776 -0.058322388
2774000000 -0.106412216 -0.052660516
2780500000 -0.115802672 -0.049849652
2787000000 -0.123095048 -0.046036280
2793500000 -0.133041960 -0.037787724
2800000000 -0.145145344 -0.030583774