!File created by NanoVNA
# Hz S RI R 50
!LO
 600000000  0.687984448  0.449067872
 602000000  0.710636288  0.420154624
 604000000  0.731989888  0.392526720
 606000000  0.752596352  0.361618816
 608000000  0.771621056  0.329064832
 610000000  0.788088000  0.295163776
 612000000  0.802877952  0.260668400
 614000000  0.816475712  0.226223600
 616000000  0.828456192  0.189267600
 618000000  0.838063488  0.152209328
 620000000  0.845281408  0.114878016
 622000000  0.850854720  0.077443064
 624000000  0.855038336  0.041860660
 626000000  0.857673344  0.000713639
 628000000  0.857190080 -0.038129948
 630000000  0.855293056 -0.075333784
 632000000  0.851731072 -0.114957392
 634000000  0.847490048 -0.151356432
 636000000  0.841845632 -0.189010896
 638000000  0.832980928 -0.226573568
 640000000  0.823217408 -0.263522272
 642000000  0.811288384 -0.300088416
 644000000  0.798830080 -0.337792256
 646000000  0.784016256 -0.372275488
 648000000  0.762205056 -0.405511296
 650000000  0.747583488 -0.442272384
 652000000  0.726651392 -0.476177216
 654000000  0.707024256 -0.508497824
 656000000  0.682210560 -0.540965888
 658000000  0.658416832 -0.571673920
 660000000  0.630819328 -0.600642560
 662000000  0.603251072 -0.629128832
 664000000  0.574019584 -0.655321856
 666000000  0.543988672 -0.680815424
 668000000  0.512282784 -0.703799872
 670000000  0.480512960 -0.725699456
 672000000  0.445659424 -0.746127424
 674000000  0.413300160 -0.765403648
 676000000  0.377838112 -0.783448384
 678000000  0.343315680 -0.798634560
 680000000  0.306378272 -0.813252928
 682000000  0.269324352 -0.825708032
 684000000  0.232023200 -0.836480768
 686000000  0.193612432 -0.844925568
 688000000  0.156531968 -0.853177536
 690000000  0.118016144 -0.859051904
 692000000  0.079848080 -0.862174016
 694000000  0.040185956 -0.863963456
 696000000  0.002154536 -0.865444160
 698000000 -0.036745368 -0.862742464
 700000000 -0.075744272 -0.858928704
 702000000 -0.112815920 -0.853987648
 704000000 -0.151842592 -0.846422336
 706000000 -0.187638032 -0.837366080
 708000000 -0.224155056 -0.828449920
 710000000 -0.260918144 -0.816129024
 712000000 -0.296676992 -0.802910080
 714000000 -0.330506560 -0.788532736
 716000000 -0.365122944 -0.770697920
 718000000 -0.398777728 -0.753433088
 720000000 -0.430491616 -0.734171136
 722000000 -0.462933216 -0.713785216
 724000000 -0.493729888 -0.691157056
 726000000 -0.522845760 -0.666562560
 728000000 -0.552691584 -0.642153024
 730000000 -0.579645184 -0.615284352
 732000000 -0.603706176 -0.587537344
 734000000 -0.628707072 -0.558508992
 736000000 -0.650571392 -0.528507904
 738000000 -0.671612800 -0.497012896
 740000000 -0.691652032 -0.465564512
 742000000 -0.708530816 -0.434209568
 744000000 -0.723686720 -0.401219840
 746000000 -0.738313408 -0.368249632
 748000000 -0.751945216 -0.334609088
 750000000 -0.764200320 -0.299793984
 752000000 -0.773463936 -0.266272480
 754000000 -0.782973696 -0.230476128
 756000000 -0.790924032 -0.196932192
 758000000 -0.794994624 -0.161948944
 760000000 -0.798286272 -0.125580384
 762000000 -0.800807616 -0.090466976
 764000000 -0.800454912 -0.054010576
 766000000 -0.798989696 -0.018608940
 768000000 -0.796009024  0.016721849
 770000000 -0.790228992  0.052515600
 772000000 -0.783176448  0.087511008
 774000000 -0.774341440  0.121590664
 776000000 -0.764028160  0.154987392
 778000000 -0.751369856  0.187890352
 780000000 -0.738344128  0.219295728
 782000000 -0.723101632  0.249929872
 784000000 -0.706304128  0.280518752
 786000000 -0.687914112  0.309351840
 788000000 -0.669546368  0.336831936
 790000000 -0.648952000  0.363602368
 792000000 -0.627819072  0.387194176
 794000000 -0.603867136  0.411500160
 796000000 -0.581103680  0.433190848
 798000000 -0.555788224  0.454074432
 800000000 -0.530884672  0.472500736
 802000000 -0.504824992  0.491145120
 804000000 -0.478095744  0.506527360
 806000000 -0.454210208  0.521412960
 808000000 -0.426669024  0.534992512
 810000000 -0.401166752  0.547545280
 812000000 -0.373025344  0.558973312
 814000000 -0.345708128  0.568841536
 816000000 -0.318692928  0.577942080
 818000000 -0.290819360  0.583402368
 820000000 -0.262992528  0.589531328
 822000000 -0.234562992  0.594065728
 824000000 -0.206262720  0.597017088
 826000000 -0.178516224  0.598453888
 828000000 -0.151265328  0.596310976
 830000000 -0.124912928  0.594010176
 832000000 -0.098931144  0.591008576
 834000000 -0.074158776  0.586276992
 836000000 -0.049992024  0.580409728
 838000000 -0.025203974  0.574265856
 840000000 -0.002406771  0.566934080
 842000000  0.019917076  0.559707008
 844000000  0.042289320  0.551520320
 846000000  0.063553876  0.541703168
 848000000  0.085048664  0.531118880
 850000000  0.104656040  0.520010304
 852000000  0.125377448  0.506780800
 854000000  0.142685632  0.492984160
 856000000  0.160409712  0.478094624
 858000000  0.177249824  0.462995360
 860000000  0.191698192  0.446627520
 862000000  0.205545408  0.429800608
 864000000  0.217607952  0.412357664
 866000000  0.221554480  0.398026464
 868000000  0.231031296  0.380261056
 870000000  0.238328240  0.363682976
 872000000  0.245076336  0.346897536
 874000000  0.250295376  0.330969984
 876000000  0.255097568  0.313861984
 878000000  0.258643984  0.298986624
 880000000  0.261285488  0.284303328
 882000000  0.263005264  0.268901632
 884000000  0.264086400  0.255090656
 886000000  0.263818928  0.241156080
 888000000  0.261465344  0.228106128
 890000000  0.260816400  0.218518592
 892000000  0.259750400  0.208691296
 894000000  0.258578576  0.199903504
 896000000  0.258062688  0.190488864
 898000000  0.257555312  0.181821152
 900000000  0.257039136  0.172333296
 902000000  0.255588448  0.163835056
 904000000  0.254094480  0.156541280
 906000000  0.253037536  0.148667904
 908000000  0.251187328  0.140784992
 910000000  0.248738112  0.133489576
 912000000  0.246472512  0.126238544
 914000000  0.242640816  0.120046200
 916000000  0.238903520  0.115649360
 918000000  0.236037888  0.111440288
 920000000  0.233550768  0.108071584
 922000000  0.231668112  0.105570472
 924000000  0.229987936  0.102768968
 926000000  0.229021024  0.100141904
 928000000  0.227948064  0.098079512
 930000000  0.226891504  0.096155840
 932000000  0.226548656  0.094487600
 934000000  0.226163920  0.094253768
 936000000  0.226958832  0.093403544
 938000000  0.227399392  0.092460992
 940000000  0.228335248  0.092585688
 942000000  0.230081168  0.093173032
 944000000  0.231878320  0.094327344
 946000000  0.235701760  0.095497096
 948000000  0.246814560  0.100017672
 950000000  0.253278160  0.100217200
 952000000  0.260936352  0.100159048
 954000000  0.269672736  0.098548928
 956000000  0.279000160  0.096052856
 958000000  0.288723008  0.092745672
 960000000  0.298723808  0.088563128
 962000000  0.308637120  0.083975096
 964000000  0.319694752  0.077066288
 966000000  0.330644000  0.069319752
 968000000  0.341897920  0.061014280
 970000000  0.352974272  0.050584792
 972000000  0.363817088  0.039694276
 974000000  0.373976864  0.027479236
 976000000  0.383120384  0.013830014
 978000000  0.392561920 -0.000070216
 980000000  0.401343840 -0.015941497
 982000000  0.409310016 -0.031520594
 984000000  0.417427648 -0.049348300
 986000000  0.425152832 -0.067133480
 988000000  0.432054880 -0.087467792
 990000000  0.437417056 -0.107926264
 992000000  0.441742432 -0.130678792
 994000000  0.442652352 -0.154135200
 996000000  0.443765728 -0.177236192
 998000000  0.442736320 -0.202926912
1000000000  0.439503168 -0.227475568
!HI
1500000000  0.129816920  0.863268352
1506500000  0.244884944  0.837864960
1513000000  0.356285152  0.795614016
1519500000  0.458585728  0.740330752
1526000000  0.555081152  0.668734656
1532500000  0.641790720  0.586774272
1539000000  0.713760192  0.492285024
1545500000  0.774794496  0.386559872
1552000000  0.820709760  0.270983328
1558500000  0.850092416  0.151472384
1565000000  0.859531840  0.030070470
1571500000  0.851574784 -0.097205864
1578000000  0.825400768 -0.219866656
1584500000  0.781781632 -0.336714016
1591000000  0.717041024 -0.447408960
1597500000  0.644087552 -0.546696448
1604000000  0.548689920 -0.634506688
1610500000  0.450305664 -0.704581568
1617000000  0.332462016 -0.760978624
1623500000  0.213210976 -0.797310464
1630000000  0.089039240 -0.814114112
1636500000 -0.033287738 -0.815523072
1643000000 -0.158263408 -0.795151680
1649500000 -0.274438816 -0.755139136
1656000000 -0.379479584 -0.703056768
1662500000 -0.483384256 -0.626547776
1669000000 -0.565378368 -0.540471360
1675500000 -0.637989632 -0.445520992
1682000000 -0.688823424 -0.339927104
1688500000 -0.722720128 -0.228970928
1695000000 -0.739710976 -0.115291912
1701500000 -0.738206016 -0.003757908
1708000000 -0.720206592  0.102956992
1714500000 -0.685208384  0.205482192
1721000000 -0.636902336  0.296742336
1727500000 -0.574342784  0.380680768
1734000000 -0.502450816  0.453321504
1740500000 -0.422168160  0.509220544
1747000000 -0.335402240  0.552695808
1753500000 -0.246634528  0.578620416
1760000000 -0.155113008  0.591991232
1766500000 -0.066735164  0.591567168
1773000000  0.014905967  0.578038016
1779500000  0.093495032  0.551768512
1786000000  0.159898768  0.514569344
1792500000  0.221923568  0.472936768
1799000000  0.277843968  0.423454368
1805500000  0.323461888  0.364281728
1812000000  0.360092992  0.305072736
1818500000  0.375086464  0.239262256
1825000000  0.391207616  0.171010064
1831500000  0.391707360  0.102201160
1838000000  0.379838144  0.038331356
1844500000  0.356814592 -0.020057072
1851000000  0.326552032 -0.069482864
1857500000  0.288674784 -0.112734344
1864000000  0.244464112 -0.146304336
1870500000  0.196208240 -0.167300992
1877000000  0.147687872 -0.176601616
1883500000  0.101933856 -0.175086640
1890000000  0.060430152 -0.163225696
1896500000  0.026600948 -0.144836160
1903000000 -0.000396168 -0.118903088
1909500000 -0.017550900 -0.089043208
1916000000 -0.023839070 -0.058745388
1922500000 -0.022122176 -0.032198926
1929000000 -0.014025751 -0.008357845
1935500000  0.000055340  0.011581786
1942000000  0.020257796  0.026450014
1948500000  0.044720584  0.033718652
1955000000  0.069964296  0.032843658
1961500000  0.095404512  0.024587780
1968000000  0.121056016  0.007784198
1974500000  0.141014336 -0.017932194
1981000000  0.154867904 -0.048226432
1987500000  0.162807168 -0.082865552
1994000000  0.163328112 -0.122617776
2000500000  0.153771136 -0.164023872
2007000000  0.134384640 -0.205579856
2013500000  0.105747504 -0.241513424
2020000000  0.070562072 -0.271335200
2026500000  0.030346384 -0.297269152
2033000000 -0.015085714 -0.318612544
2039500000 -0.068678720 -0.332907392
2046000000 -0.124721176 -0.338708032
2052500000 -0.184476160 -0.334590752
2059000000 -0.244048704 -0.323366944
2065500000 -0.306892192 -0.296240736
2072000000 -0.366473536 -0.262092176
2078500000 -0.422714208 -0.214521488
2085000000 -0.471493536 -0.155664544
2091500000 -0.512437056 -0.089036136
2098000000 -0.542892288 -0.009921952
2104500000 -0.559288192  0.074972512
2111000000 -0.559717568  0.165396736
2117500000 -0.546981888  0.254068368
2124000000 -0.515143648  0.341511840
2130500000 -0.474550272  0.427956384
2137000000 -0.416114080  0.504423200
2143500000 -0.344548736  0.575249600
2150000000 -0.259202336  0.632140672
2156500000 -0.168502608  0.674434304
2163000000 -0.066899868  0.705399936
2169500000  0.036102604  0.713483840
2176000000  0.141396048  0.708987200
2182500000  0.246572304  0.688947392
2189000000  0.343910720  0.653451008
2195500000  0.438991264  0.600625216
2202000000  0.522580032  0.537824000
2208500000  0.597906496  0.459625536
2215000000  0.663132608  0.369253920
2221500000  0.713530624  0.273872864
2228000000  0.749238400  0.166622832
2234500000  0.769155712  0.062003872
2241000000  0.772723392 -0.053219440
2247500000  0.760741312 -0.162857168
2254000000  0.734522432 -0.272609984
2260500000  0.685826304 -0.378632704
2267000000  0.628305280 -0.474127040
2273500000  0.553292160 -0.563668672
2280000000  0.467372672 -0.641862656
2286500000  0.367412224 -0.705709952
2293000000  0.260822272 -0.756433600
2299500000  0.146389184 -0.787054208
2306000000  0.029281272 -0.803077760
2312500000 -0.086546360 -0.803748224
2319000000 -0.207062080 -0.782743360
2325500000 -0.325185760 -0.743709248
2332000000 -0.426331744 -0.692381696
2338500000 -0.526460000 -0.623795712
2345000000 -0.613380096 -0.543465664
2351500000 -0.687010880 -0.447031904
2358000000 -0.747388608 -0.344788448
2364500000 -0.790419584 -0.234032464
2371000000 -0.817224000 -0.121241568
2377500000 -0.828699264 -0.002888028
2384000000 -0.822190528  0.115950848
2390500000 -0.799202752  0.230199680
2397000000 -0.761926144  0.339987584
2403500000 -0.709145152  0.443799456
2410000000 -0.643364096  0.537243520
2416500000 -0.565540288  0.620748480
2423000000 -0.472251872  0.696235392
2429500000 -0.378123104  0.754121792
2436000000 -0.272593632  0.802644224
2442500000 -0.163777088  0.830873472
2449000000 -0.052821188  0.845897664
2455500000  0.062916368  0.846324416
2462000000  0.177358960  0.832231936
2468500000  0.286326400  0.801183040
2475000000  0.391570368  0.757678784
2481500000  0.493293056  0.695341888
2488000000  0.581070528  0.625582784
2494500000  0.661716736  0.539952064
2501000000  0.730218560  0.441730464
2507500000  0.783583872  0.341439616
2514000000  0.820851456  0.227826736
2520500000  0.846042880  0.113500048
2527000000  0.851467520 -0.006444264
2533500000  0.844551616 -0.125642480
2540000000  0.811883712 -0.246427824
2546500000  0.763313664 -0.362741664
2553000000  0.704352768 -0.468241216
2559500000  0.623713664 -0.563687360
2566000000  0.540870144 -0.650677120
2572500000  0.424400736 -0.719854016
2579000000  0.312010752 -0.771040064
2585500000  0.186978304 -0.807598976
2592000000  0.056257644 -0.823180096
2598500000 -0.067709960 -0.817645824
2605000000 -0.191983088 -0.787816384
2611500000 -0.317756128 -0.744764608
2618000000 -0.423749408 -0.683261760
2624500000 -0.522506656 -0.598678528
2631000000 -0.605693120 -0.509243296
2637500000 -0.675497472 -0.398862400
2644000000 -0.726065088 -0.282747520
2650500000 -0.750805824 -0.162676528
2657000000 -0.758036800 -0.040155468
2663500000 -0.745313472  0.080419560
2670000000 -0.711341888  0.195593232
2676500000 -0.659920128  0.302131072
2683000000 -0.593518208  0.394381344
2689500000 -0.510042176  0.472386912
2696000000 -0.421300704  0.536824480
2702500000 -0.326232032  0.579701568
2709000000 -0.216444208  0.604860544
2715500000 -0.111565960  0.610159744
2722000000 -0.015568380  0.593252288
2728500000  0.072965616  0.565374976
2735000000  0.152479856  0.518696480
2741500000  0.221121792  0.458546016
2748000000  0.265978480  0.392860160
2754500000  0.299707136  0.318202784
2761000000  0.313463232  0.247570640
2767500000  0.310201536  0.180410576
2774000000  0.293999264  0.119698720
2780500000  0.265648032  0.071608040
2787000000  0.230033840  0.036678652
2793500000  0.193810080  0.012565081
2800000000  0.154198480  0.003623899