!File created by NanoVNA
# Hz S RI R 50
!LO
 600000000  0.040203776  0.691402176
 602000000  0.044583336  0.680824384
 604000000  0.047324740  0.667944832
 606000000  0.048957496  0.656471168
 608000000  0.049065396  0.645325184
 610000000  0.047291240  0.636403712
 612000000  0.044996012  0.627829568
 614000000  0.041026788  0.620831936
 616000000  0.035855396  0.615493952
 618000000  0.030002394  0.612248256
 620000000  0.025728492  0.611233344
 622000000  0.019781474  0.611333824
 624000000  0.013648076  0.616982464
 626000000  0.011603904  0.619586240
 628000000  0.009188864  0.624749440
 630000000  0.008363694  0.630536640
 632000000  0.008629062  0.637823552
 634000000  0.010120275  0.643977728
 636000000  0.010992351  0.651670272
 638000000  0.013149486  0.659362944
 640000000  0.018324706  0.669190656
 642000000  0.023612672  0.677218880
 644000000  0.029944742  0.685538752
 646000000  0.037343676  0.693753792
 648000000  0.043089180  0.701540352
 650000000  0.053515808  0.710319168
 652000000  0.062621804  0.719430144
 654000000  0.073471472  0.726956736
 656000000  0.085288432  0.736734400
 658000000  0.098255656  0.744825088
 660000000  0.112830912  0.752224448
 662000000  0.127535072  0.759038400
 664000000  0.144606656  0.765601344
 666000000  0.161872912  0.769910016
 668000000  0.178462320  0.774559616
 670000000  0.196332592  0.776503552
 672000000  0.214495008  0.783442112
 674000000  0.233914048  0.781758720
 676000000  0.254132688  0.782304512
 678000000  0.274144000  0.782252160
 680000000  0.295732224  0.780029504
 682000000  0.316053440  0.777019968
 684000000  0.336936288  0.773137344
 686000000  0.357300448  0.767916672
 688000000  0.376328544  0.762370752
 690000000  0.396559328  0.755585280
 692000000  0.416228544  0.747558208
 694000000  0.435446336  0.739854784
 696000000  0.457310784  0.731916352
 698000000  0.475442848  0.723745408
 700000000  0.494801728  0.712888832
 702000000  0.513710368  0.701783808
 704000000  0.532689440  0.690529792
 706000000  0.553049792  0.676878528
 708000000  0.571744128  0.664965184
 710000000  0.592378176  0.649966080
 712000000  0.609868416  0.635484992
 714000000  0.629374656  0.618007296
 716000000  0.647593792  0.599313024
 718000000  0.665569216  0.580295232
 720000000  0.683463040  0.559685568
 722000000  0.700689280  0.539139392
 724000000  0.716568640  0.515756608
 726000000  0.731000896  0.493984704
 728000000  0.745559424  0.465907968
 730000000  0.757855296  0.440111392
 732000000  0.769368704  0.414490400
 734000000  0.780021184  0.385052864
 736000000  0.789720640  0.358349728
 738000000  0.799162624  0.328242528
 740000000  0.804913792  0.297875360
 742000000  0.809602816  0.266080800
 744000000  0.812500544  0.234218544
 746000000  0.816404672  0.203000192
 748000000  0.817283200  0.168552864
 750000000  0.815713728  0.133481280
 752000000  0.812136128  0.098371288
 754000000  0.805774720  0.063108340
 756000000  0.796468864  0.027481574
 758000000  0.785740480 -0.006276531
 760000000  0.773207936 -0.039544420
 762000000  0.757897728 -0.074647208
 764000000  0.739637760 -0.107822608
 766000000  0.719054912 -0.140806832
 768000000  0.695452736 -0.172255280
 770000000  0.669154304 -0.202705312
 772000000  0.639354432 -0.230722720
 774000000  0.607292288 -0.255533360
 776000000  0.574127424 -0.277773376
 778000000  0.538747648 -0.297516800
 780000000  0.501198528 -0.314794240
 782000000  0.462449088 -0.328361600
 784000000  0.423572768 -0.336987168
 786000000  0.384288384 -0.342578976
 788000000  0.344550976 -0.346748768
 790000000  0.308872064 -0.340416288
 792000000  0.269440576 -0.337592928
 794000000  0.229024688 -0.331614432
 796000000  0.191049568 -0.320727136
 798000000  0.154088736 -0.305642976
 800000000  0.120372480 -0.287872352
 802000000  0.089254792 -0.266487424
 804000000  0.060688416 -0.243127488
 806000000  0.036991832 -0.216971632
 808000000  0.016873184 -0.189693008
 810000000  0.000901639 -0.162755904
 812000000 -0.012002727 -0.137591280
 814000000 -0.024308682 -0.113548024
 816000000 -0.035917920 -0.089975560
 818000000 -0.048275256 -0.064917864
 820000000 -0.059506028 -0.038063644
 822000000 -0.067753672 -0.008217756
 824000000 -0.071875360  0.022796220
 826000000 -0.072715576  0.052926196
 828000000 -0.069973816  0.083725080
 830000000 -0.063860304  0.112740832
 832000000 -0.053208780  0.140020272
 834000000 -0.040710104  0.163246960
 836000000 -0.027640846  0.182917984
 838000000 -0.015538428  0.201436384
 840000000 -0.003730019  0.218461664
 842000000  0.008331848  0.236734304
 844000000  0.022330792  0.254480272
 846000000  0.039025180  0.271506656
 848000000  0.057510360  0.286220864
 850000000  0.076787824  0.297962688
 852000000  0.096309992  0.307172576
 854000000  0.114914488  0.314101536
 856000000  0.133032056  0.319705024
 858000000  0.150194640  0.323852704
 860000000  0.166888752  0.328345472
 862000000  0.180217360  0.331373056
 864000000  0.196434384  0.335178688
 866000000  0.214617088  0.338811040
 868000000  0.233029408  0.340502720
 870000000  0.251656080  0.340367200
 872000000  0.269945696  0.339000608
 874000000  0.287378816  0.336305216
 876000000  0.305180832  0.332289856
 878000000  0.321055392  0.326602144
 880000000  0.336340032  0.320523168
 882000000  0.351176960  0.312820544
 884000000  0.364895264  0.304757056
 886000000  0.377304608  0.296019808
 888000000  0.388178848  0.287682272
 890000000  0.399045728  0.279726656
 892000000  0.410469824  0.271204416
 894000000  0.420855840  0.262191744
 896000000  0.430288384  0.251118928
 898000000  0.438226656  0.241859808
 900000000  0.446735456  0.232720960
 902000000  0.453560224  0.223229552
 904000000  0.460715520  0.214241088
 906000000  0.469270080  0.205043952
 908000000  0.476892512  0.194846512
 910000000  0.484249504  0.183417248
 912000000  0.490569760  0.171197968
 914000000  0.495706272  0.158869152
 916000000  0.499647840  0.145544048
 918000000  0.502227136  0.134666896
 920000000  0.503925984  0.121857752
 922000000  0.505105568  0.111181408
 924000000  0.505426336  0.101018712
 926000000  0.505990272  0.092422080
 928000000  0.506948000  0.084497272
 930000000  0.508489120  0.076130168
 932000000  0.509771296  0.067477752
 934000000  0.511743712  0.059244556
 936000000  0.514354816  0.050859008
 938000000  0.516152128  0.041576116
 940000000  0.518670784  0.031205786
 942000000  0.521211968  0.020847466
 944000000  0.521521024  0.008663783
 946000000  0.521555488 -0.003332510
 948000000  0.519216416 -0.015121223
 950000000  0.515851968 -0.026511576
 952000000  0.511861728 -0.035441680
 954000000  0.507690848 -0.045309736
 956000000  0.504509440 -0.052445392
 958000000  0.500951008 -0.058961792
 960000000  0.497972544 -0.066499064
 962000000  0.495585472 -0.072054328
 964000000  0.493459488 -0.079270304
 966000000  0.490638080 -0.087114008
 968000000  0.488032320 -0.094998960
 970000000  0.484856288 -0.102349264
 972000000  0.481208992 -0.109528904
 974000000  0.476580000 -0.115784984
 976000000  0.472617472 -0.121507912
 978000000  0.469025856 -0.126686960
 980000000  0.464932800 -0.131267296
 982000000  0.461257728 -0.135423504
 984000000  0.457059136 -0.140079776
 986000000  0.457187360 -0.142526832
 988000000  0.456167488 -0.146896432
 990000000  0.455578432 -0.151399680
 992000000  0.455346432 -0.156611136
 994000000  0.453674048 -0.163431008
 996000000  0.452150784 -0.170452976
 998000000  0.450368288 -0.176389136
1000000000  0.447684320 -0.182528224
!HI
1500000000 -0.309786816  0.423515168
1506500000 -0.297156320  0.450844576
1513000000 -0.279590912  0.477026368
1519500000 -0.258867888  0.503046400
1526000000 -0.234673888  0.526534368
1532500000 -0.205643264  0.548194560
1539000000 -0.177959344  0.566594048
1545500000 -0.146567376  0.583732800
1552000000 -0.114974496  0.597813248
1558500000 -0.080256216  0.607148736
1565000000 -0.045903836  0.613293056
1571500000 -0.016375900  0.619419904
1578000000  0.019524550  0.623785152
1584500000  0.057125552  0.625164096
1591000000  0.094038088  0.618288256
1597500000  0.125258984  0.610409216
1604000000  0.156901552  0.603376768
1610500000  0.189776368  0.592596096
1617000000  0.220475568  0.579387648
1623500000  0.247454096  0.565559232
1630000000  0.278962176  0.552331328
1636500000  0.303257408  0.537076160
1643000000  0.331466464  0.516043008
1649500000  0.354630304  0.497784320
1656000000  0.381014144  0.471328224
1662500000  0.403696192  0.454239392
1669000000  0.425730784  0.427798272
1675500000  0.445511008  0.406343520
1682000000  0.464228800  0.378685152
1688500000  0.479796096  0.354018912
1695000000  0.497386624  0.324302400
1701500000  0.511419072  0.293152832
1708000000  0.520270592  0.262514736
1714500000  0.526663616  0.235099696
1721000000  0.535929792  0.207609872
1727500000  0.544240576  0.178251488
1734000000  0.548734272  0.145858928
1740500000  0.549665344  0.113665592
1747000000  0.549642880  0.083736264
1753500000  0.546383104  0.051408388
1760000000  0.540452480  0.022604804
1766500000  0.532675040 -0.004626462
1773000000  0.527338816 -0.031115336
1779500000  0.520436896 -0.059756936
1786000000  0.510491552 -0.089004184
1792500000  0.497715584 -0.115275136
1799000000  0.484045344 -0.140705632
1805500000  0.468228480 -0.168015040
1812000000  0.450440096 -0.195424624
1818500000  0.430209376 -0.217318832
1825000000  0.410630560 -0.239124656
1831500000  0.388365696 -0.261259824
1838000000  0.365687776 -0.280262624
1844500000  0.344745600 -0.299135488
1851000000  0.319005568 -0.320334080
1857500000  0.290946624 -0.339833984
1864000000  0.262018112 -0.354085952
1870500000  0.233464080 -0.367652032
1877000000  0.202365360 -0.379814176
1883500000  0.171604208 -0.389283072
1890000000  0.143551936 -0.396470304
1896500000  0.110148640 -0.407224224
1903000000  0.076719448 -0.410178848
1909500000  0.044856752 -0.414888320
1916000000  0.007029728 -0.412695776
1922500000 -0.023669656 -0.410326496
1929000000 -0.057518112 -0.405869856
1935500000 -0.091070704 -0.400500832
1942000000 -0.128032656 -0.391696896
1948500000 -0.160637568 -0.377781312
1955000000 -0.194348944 -0.363518144
1961500000 -0.228811840 -0.343830080
1968000000 -0.259142096 -0.318608064
1974500000 -0.289350432 -0.293146688
1981000000 -0.315174528 -0.262953520
1987500000 -0.336807424 -0.229476880
1994000000 -0.353296000 -0.198713392
2000500000 -0.368247872 -0.166532208
2007000000 -0.381829792 -0.134955536
2013500000 -0.395705248 -0.103403480
2020000000 -0.406568768 -0.068203176
2026500000 -0.416105408 -0.029106780
2033000000 -0.420185984  0.006550818
2039500000 -0.421831776  0.044448168
2046000000 -0.420589312  0.081264136
2052500000 -0.416992352  0.117735704
2059000000 -0.413615424  0.156081600
2065500000 -0.401914624  0.190876432
2072000000 -0.391336992  0.227630320
2078500000 -0.378601920  0.257001872
2085000000 -0.363101504  0.292878944
2091500000 -0.345026592  0.325660096
2098000000 -0.325343744  0.354712096
2104500000 -0.302037856  0.382860992
2111000000 -0.278815392  0.410098240
2117500000 -0.250900128  0.434805536
2124000000 -0.226689552  0.453144288
2130500000 -0.194527376  0.475515648
2137000000 -0.161721760  0.488290560
2143500000 -0.135509984  0.502807488
2150000000 -0.103773048  0.515891968
2156500000 -0.072954304  0.528014240
2163000000 -0.040754188  0.535959840
2169500000 -0.006977071  0.542407552
2176000000  0.026148646  0.547198080
2182500000  0.056934592  0.545996992
2189000000  0.089464264  0.547319488
2195500000  0.124776512  0.546767360
2202000000  0.159528304  0.542475136
2208500000  0.193407520  0.535280928
2215000000  0.226724960  0.523469344
2221500000  0.257750576  0.513544928
2228000000  0.289733984  0.501511648
2234500000  0.323198624  0.488103232
2241000000  0.354711712  0.470039456
2247500000  0.382749600  0.448647808
2254000000  0.411633184  0.426855840
2260500000  0.438923616  0.404907712
2267000000  0.466135232  0.377752896
2273500000  0.486771584  0.349987808
2280000000  0.508906080  0.321865216
2286500000  0.527260736  0.295444768
2293000000  0.546379712  0.264462464
2299500000  0.562955136  0.234341584
2306000000  0.577492672  0.200246096
2312500000  0.588645120  0.163855248
2319000000  0.596825920  0.127999824
2325500000  0.599429632  0.091841488
2332000000  0.600619584  0.053525264
2338500000  0.600254848  0.020493126
2345000000  0.596175104 -0.019399574
2351500000  0.593169664 -0.049857756
2358000000  0.579956288 -0.087872528
2364500000  0.568841920 -0.121423512
2371000000  0.553695040 -0.159230704
2377500000  0.532156288 -0.191774880
2384000000  0.513400128 -0.221706832
2390500000  0.488433312 -0.253548000
2397000000  0.461862976 -0.282370016
2403500000  0.430576736 -0.308782400
2410000000  0.398686112 -0.333545856
2416500000  0.365078528 -0.352946208
2423000000  0.330842400 -0.370634016
2429500000  0.294118208 -0.384756768
2436000000  0.254809408 -0.394826144
2442500000  0.218361616 -0.402280736
2449000000  0.180123136 -0.404191584
2455500000  0.142374016 -0.401144352
2462000000  0.110522112 -0.392328128
2468500000  0.082087456 -0.383580736
2475000000  0.057054944 -0.372215616
2481500000  0.035269212 -0.359987584
2488000000  0.018139510 -0.349249088
2494500000  0.002100471 -0.340797408
2501000000 -0.012290567 -0.334178208
2507500000 -0.026781090 -0.329561632
2514000000 -0.045094912 -0.324200512
2520500000 -0.062516980 -0.317341024
2527000000 -0.079492344 -0.310724224
2533500000 -0.097757536 -0.305820896
2540000000 -0.119414160 -0.295852384
2546500000 -0.141076640 -0.286308096
2553000000 -0.162024160 -0.266391792
2559500000 -0.181097840 -0.247760112
2566000000 -0.197785488 -0.228276240
2572500000 -0.211828784 -0.205830112
2579000000 -0.226924528 -0.182483840
2585500000 -0.241801904 -0.154080928
2592000000 -0.246930448 -0.126123888
2598500000 -0.252340384 -0.096395688
2605000000 -0.251822688 -0.064372980
2611500000 -0.248483056 -0.037552980
2618000000 -0.243077024 -0.009351643
2624500000 -0.234252080  0.015660659
2631000000 -0.221126880  0.041901560
2637500000 -0.202348144  0.063962416
2644000000 -0.182407664  0.080279936
2650500000 -0.163475696  0.090592504
2657000000 -0.145282992  0.099130688
2663500000 -0.125665576  0.103664784
2670000000 -0.106145560  0.102797984
2676500000 -0.090548080  0.098893768
2683000000 -0.079840496  0.094116424
2689500000 -0.070149088  0.086933944
2696000000 -0.062288660  0.077988928
2702500000 -0.055884252  0.068758776
2709000000 -0.054121112  0.059165348
2715500000 -0.052126252  0.046774732
2722000000 -0.054392288  0.035935092
2728500000 -0.060927800  0.024283762
2735000000 -0.070372704  0.012517664
2741500000 -0.078404960  0.004312374
2748000000 -0.090752872 -0.002483008
2754500000 -0.104646968 -0.007099588
2761000000 -0.119613416 -0.011040674
2767500000 -0.135225344 -0.012948029
2774000000 -0.149882160 -0.013801254
2780500000 -0.168387728 -0.013876087
2787000000 -0.183681184 -0.010653743
2793500000 -0.198492624 -0.004261428
2800000000 -0.218363360 -0.004116756