!File created by NanoVNA
# Hz S RI R 50
!LO
 600000000  0.008691995  0.207203248
 602000000  0.028836438  0.204837760
 604000000  0.047994752  0.197229392
 606000000  0.063801080  0.186451744
 608000000  0.076072920  0.174150512
 610000000  0.084997848  0.161518160
 612000000  0.091558976  0.149511904
 614000000  0.096443208  0.137865280
 616000000  0.099818304  0.126774576
 618000000  0.101952936  0.116466552
 620000000  0.103282712  0.106899248
 622000000  0.103599136  0.097743632
 624000000  0.103046200  0.089534008
 626000000  0.102963984  0.082816240
 628000000  0.103072296  0.075984904
 630000000  0.103347480  0.068831512
 632000000  0.103576488  0.061811872
 634000000  0.103848496  0.053833088
 636000000  0.103497200  0.045109088
 638000000  0.101615136  0.035381624
 640000000  0.097667840  0.026127354
 642000000  0.092125888  0.018167432
 644000000  0.086384872  0.011419101
 646000000  0.080362608  0.005031535
 648000000  0.073928856 -0.000950082
 650000000  0.066702112 -0.006571947
 652000000  0.058674984 -0.011593147
 654000000  0.049009452 -0.015961549
 656000000  0.038456040 -0.017874372
 658000000  0.028551052 -0.017412198
 660000000  0.019695996 -0.015043887
 662000000  0.013009104 -0.011326706
 664000000  0.008173120 -0.009009498
 666000000  0.003067812 -0.007980782
 668000000 -0.003178545 -0.007151508
 670000000 -0.010275636 -0.006085817
 672000000 -0.017859058 -0.003482198
 674000000 -0.025010660  0.000886341
 676000000 -0.030471518  0.005993509
 678000000 -0.035152896  0.009912634
 680000000 -0.040203856  0.013483337
 682000000 -0.046307904  0.017160220
 684000000 -0.053625572  0.021587134
 686000000 -0.061732240  0.028355164
 688000000 -0.069001648  0.037677128
 690000000 -0.074123776  0.049057744
 692000000 -0.076584576  0.060697740
 694000000 -0.076919528  0.071562272
 696000000 -0.076205920  0.081202840
 698000000 -0.075815496  0.090246416
 700000000 -0.075012856  0.098995416
 702000000 -0.074144856  0.107051176
 704000000 -0.074229816  0.115410768
 706000000 -0.074950488  0.125167296
 708000000 -0.074911656  0.137468048
 710000000 -0.072436672  0.150954144
 712000000 -0.067967832  0.164982944
 714000000 -0.060043984  0.179043744
 716000000 -0.049369508  0.191386560
 718000000 -0.037153424  0.200511856
 720000000 -0.025717928  0.207673616
 722000000 -0.015071800  0.214199216
 724000000 -0.003519173  0.220833584
 726000000  0.008897677  0.226029616
 728000000  0.021212772  0.229832768
 730000000  0.033448484  0.233484736
 732000000  0.045910664  0.236690576
 734000000  0.059341488  0.238910944
 736000000  0.072929464  0.240126096
 738000000  0.086740920  0.239674144
 740000000  0.099394576  0.236819696
 742000000  0.111679912  0.233490496
 744000000  0.122935400  0.229175920
 746000000  0.132479472  0.225242064
 748000000  0.141679008  0.221384672
 750000000  0.151601104  0.218176544
 752000000  0.161501872  0.213381568
 754000000  0.170478576  0.207810560
 756000000  0.178342768  0.202925680
 758000000  0.185702112  0.197935792
 760000000  0.193494752  0.193403456
 762000000  0.201206192  0.187869632
 764000000  0.208418016  0.182089744
 766000000  0.214568384  0.175731616
 768000000  0.219729264  0.169830560
 770000000  0.224031248  0.165497680
 772000000  0.228922880  0.162050240
 774000000  0.234675104  0.159434640
 776000000  0.241693424  0.157886304
 778000000  0.251077200  0.154251552
 780000000  0.260064512  0.149232640
 782000000  0.267961584  0.142445648
 784000000  0.275251648  0.136494272
 786000000  0.282902176  0.130280320
 788000000  0.291053152  0.124032984
 790000000  0.299915424  0.117361008
 792000000  0.309049600  0.108433848
 794000000  0.317001760  0.099174072
 796000000  0.324699328  0.088749696
 798000000  0.331820192  0.077778568
 800000000  0.337838976  0.066009604
 802000000  0.342498080  0.053914436
 804000000  0.347001248  0.042010008
 806000000  0.349614240  0.030951842
 808000000  0.352867104  0.019063960
 810000000  0.355591072  0.007558467
 812000000  0.357764768 -0.003125648
 814000000  0.359280096 -0.014513277
 816000000  0.361162432 -0.025167560
 818000000  0.363601152 -0.036291424
 820000000  0.367063712 -0.048083980
 822000000  0.369531808 -0.060965356
 824000000  0.370545536 -0.076025128
 826000000  0.369727488 -0.091831704
 828000000  0.367197792 -0.106964176
 830000000  0.363858592 -0.120826672
 832000000  0.359999616 -0.134436112
 834000000  0.356588064 -0.147712208
 836000000  0.351552672 -0.161761776
 838000000  0.345662208 -0.176077824
 840000000  0.337990208 -0.190418736
 842000000  0.329901056 -0.202414672
 844000000  0.320332832 -0.213765680
 846000000  0.311726368 -0.224739376
 848000000  0.301886752 -0.235371856
 850000000  0.292419872 -0.245267344
 852000000  0.281248576 -0.254749424
 854000000  0.270205088 -0.263279584
 856000000  0.259145760 -0.271257792
 858000000  0.247825504 -0.278917376
 860000000  0.235346960 -0.286275200
 862000000  0.222510736 -0.293010176
 864000000  0.209304672 -0.298247168
 866000000  0.195503200 -0.302936256
 868000000  0.180859488 -0.306735936
 870000000  0.166168496 -0.308055264
 872000000  0.152116208 -0.308276000
 874000000  0.139152224 -0.307207808
 876000000  0.126792896 -0.305200160
 878000000  0.115633760 -0.303059936
 880000000  0.105429056 -0.300205536
 882000000  0.095036976 -0.298369472
 884000000  0.084562696 -0.296592480
 886000000  0.072894608 -0.293846080
 888000000  0.061322520 -0.290096608
 890000000  0.050707788 -0.284147104
 892000000  0.041218220 -0.276669888
 894000000  0.033397478 -0.269954496
 896000000  0.026473876 -0.262396640
 898000000  0.033156444 -0.250621088
 900000000  0.027579884 -0.245739264
 902000000  0.021742130 -0.240040448
 904000000  0.016339301 -0.235051360
 906000000  0.009422916 -0.228908992
 908000000  0.003207733 -0.221925504
 910000000 -0.002017000 -0.213312432
 912000000 -0.006049980 -0.204248288
 914000000 -0.009259172 -0.195130112
 916000000 -0.011670294 -0.184536736
 918000000 -0.011507211 -0.173938240
 920000000 -0.009139381 -0.164190896
 922000000 -0.006196176 -0.155637152
 924000000 -0.002981327 -0.148122672
 926000000  0.000421809 -0.140687136
 928000000  0.004763377 -0.133147824
 930000000  0.010602558 -0.125527920
 932000000  0.017382466 -0.118390624
 934000000  0.025759902 -0.112560096
 936000000  0.034909932 -0.108263544
 938000000  0.043770300 -0.104569576
 940000000  0.053444852 -0.102087216
 942000000  0.064107100 -0.100401480
 944000000  0.075620976 -0.100430560
 946000000  0.086865552 -0.102470312
 948000000  0.098030736 -0.106575864
 950000000  0.107624576 -0.111997872
 952000000  0.116140104 -0.118102008
 954000000  0.123976984 -0.124651136
 956000000  0.131230192 -0.131698472
 958000000  0.137736064 -0.139576240
 960000000  0.143710144 -0.147451264
 962000000  0.149517216 -0.155504656
 964000000  0.155069984 -0.164127568
 966000000  0.160401456 -0.173091360
 968000000  0.165914528 -0.182581248
 970000000  0.170871728 -0.193511328
 972000000  0.175822608 -0.205493936
 974000000  0.179156688 -0.217763072
 976000000  0.181917616 -0.231280224
 978000000  0.183450640 -0.244626976
 980000000  0.184664528 -0.259951712
 982000000  0.184337776 -0.274353024
 984000000  0.183424736 -0.289678400
 986000000  0.182271920 -0.305794432
 988000000  0.179810464 -0.322438016
 990000000  0.175484144 -0.340557856
 992000000  0.170524288 -0.359429792
 994000000  0.161029408 -0.380003232
 996000000  0.149743664 -0.400344928
 998000000  0.134662496 -0.420539872
1000000000  0.116929184 -0.439213376
!HI
1500000000  0.363593280  0.185339744
1506500000  0.335457152  0.192405440
1513000000  0.317205344  0.206763600
1519500000  0.310056672  0.221322336
1526000000  0.307001792  0.233983616
1532500000  0.308191264  0.246939024
1539000000  0.313417952  0.261418912
1545500000  0.325545664  0.275091520
1552000000  0.343524800  0.284650848
1558500000  0.367458624  0.291112800
1565000000  0.395915648  0.289714144
1571500000  0.423082144  0.280538912
1578000000  0.448331712  0.266375392
1584500000  0.472771936  0.247096752
1591000000  0.495388864  0.225615856
1597500000  0.513912032  0.197627808
1604000000  0.529018112  0.171864752
1610500000  0.544726976  0.141859408
1617000000  0.556023040  0.108165904
1623500000  0.562429184  0.072559472
1630000000  0.564272128  0.037256232
1636500000  0.565107776  0.005275375
1643000000  0.560864000 -0.029250870
1649500000  0.556045184 -0.064072176
1656000000  0.547139520 -0.098378192
1662500000  0.533736352 -0.133949160
1669000000  0.514767232 -0.166146496
1675500000  0.495944672 -0.194372784
1682000000  0.473590944 -0.221256112
1688500000  0.450420288 -0.243386240
1695000000  0.428214208 -0.263645056
1701500000  0.405680672 -0.283761248
1708000000  0.380919264 -0.303945216
1714500000  0.354130432 -0.323613952
1721000000  0.324306592 -0.341678048
1727500000  0.293264160 -0.355218112
1734000000  0.260311312 -0.366884512
1740500000  0.225781376 -0.376444320
1747000000  0.191221680 -0.383053760
1753500000  0.152035840 -0.387445472
1760000000  0.112432120 -0.386073760
1766500000  0.074249728 -0.379681344
1773000000  0.035689684 -0.370258336
1779500000 -0.000944368 -0.357603808
1786000000 -0.037252084 -0.340267776
1792500000 -0.071692680 -0.319767616
1799000000 -0.105418824 -0.293545856
1805500000 -0.135938656 -0.260813888
1812000000 -0.161890144 -0.224583088
1818500000 -0.178990432 -0.183323952
1825000000 -0.188508400 -0.141763248
1831500000 -0.191804880 -0.100364728
1838000000 -0.186125616 -0.060210336
1844500000 -0.172285712 -0.026092296
1851000000 -0.156837680  0.000056937
1857500000 -0.142827168  0.023338638
1864000000 -0.124661224  0.046077164
1870500000 -0.102605808  0.060416668
1877000000 -0.084400768  0.070093832
1883500000 -0.068174256  0.080085456
1890000000 -0.049948892  0.088478120
1896500000 -0.030010806  0.091833656
1903000000 -0.012199946  0.092084584
1909500000  0.002784666  0.089922576
1916000000  0.017823966  0.086553488
1922500000  0.031222086  0.081079928
1929000000  0.043838988  0.071842176
1935500000  0.048870992  0.061113172
1942000000  0.052083864  0.052103548
1948500000  0.052843176  0.046454716
1955000000  0.054333780  0.042107216
1961500000  0.055720520  0.038100812
1968000000  0.059238244  0.034687880
1974500000  0.061428564  0.025998958
1981000000  0.057259392  0.019134450
1987500000  0.053978788  0.016483903
1994000000  0.052267648  0.012336367
2000500000  0.046526660  0.006235931
2007000000  0.035910072  0.005572242
2013500000  0.026425498  0.011112845
2020000000  0.021665936  0.019734228
2026500000  0.021674688  0.028177288
2033000000  0.023679554  0.034342500
2039500000  0.025227138  0.038680160
2046000000  0.027382872  0.041028196
2052500000  0.025930434  0.043613032
2059000000  0.024045382  0.050847628
2065500000  0.026465140  0.058582356
2072000000  0.029882698  0.064123868
2078500000  0.031476844  0.069810016
2085000000  0.035607664  0.076716768
2091500000  0.040786856  0.085356912
2098000000  0.050095092  0.093489160
2104500000  0.061143984  0.097033176
2111000000  0.069592064  0.099074736
2117500000  0.079406664  0.100228912
2124000000  0.090985616  0.101205712
2130500000  0.100924136  0.100209184
2137000000  0.113015464  0.095741760
2143500000  0.124001616  0.092624960
2150000000  0.135970912  0.085667368
2156500000  0.147850224  0.076383896
2163000000  0.158597536  0.064073840
2169500000  0.164762128  0.046077548
2176000000  0.165244864  0.030354358
2182500000  0.160669264  0.016622652
2189000000  0.154457728  0.009414965
2195500000  0.152857248  0.007724878
2202000000  0.156213520  0.003264315
2208500000  0.159325296 -0.003069565
2215000000  0.165074000 -0.011984475
2221500000  0.169454736 -0.024766204
2228000000  0.168660624 -0.040945448
2234500000  0.163942192 -0.054324464
2241000000  0.157917328 -0.065136432
2247500000  0.152627936 -0.076081712
2254000000  0.147596592 -0.087163552
2260500000  0.139983984 -0.099470376
2267000000  0.128958192 -0.113246328
2273500000  0.114458144 -0.123106336
2280000000  0.096974320 -0.131013024
2286500000  0.078163824 -0.133466576
2293000000  0.059891540 -0.130618944
2299500000  0.042026192 -0.124061840
2306000000  0.028916282 -0.117355600
2312500000  0.015879408 -0.104547080
2319000000  0.009428855 -0.089150376
2325500000  0.010328695 -0.074293024
2332000000  0.017896498 -0.066606412
2338500000  0.022184112 -0.065570892
2345000000  0.024695450 -0.066100872
2351500000  0.027807820 -0.069122136
2358000000  0.025768218 -0.075883792
2364500000  0.019217836 -0.082583448
2371000000  0.008757998 -0.085439552
2377500000 -0.000959489 -0.084268960
2384000000 -0.008420490 -0.083864728
2390500000 -0.017382584 -0.083258080
2397000000 -0.028220276 -0.083619408
2403500000 -0.042160140 -0.079803960
2410000000 -0.054142768 -0.073767880
2416500000 -0.067064144 -0.065679564
2423000000 -0.079495768 -0.052004932
2429500000 -0.086399264 -0.036819184
2436000000 -0.091625664 -0.022080322
2442500000 -0.093281664 -0.007097709
2449000000 -0.094009680  0.006029090
2455500000 -0.094766544  0.021857948
2462000000 -0.088967704  0.035334716
2468500000 -0.083884816  0.045415108
2475000000 -0.078945344  0.056888436
2481500000 -0.072244048  0.065031468
2488000000 -0.065290676  0.074333240
2494500000 -0.058249960  0.083287784
2501000000 -0.048634256  0.092741224
2507500000 -0.036984600  0.101883120
2514000000 -0.022204094  0.106667632
2520500000 -0.007329268  0.106747168
2527000000  0.001385157  0.103068888
2533500000  0.005930118  0.099751264
2540000000  0.007640557  0.102646768
2546500000  0.013505020  0.108605400
2553000000  0.023809586  0.118575840
2559500000  0.039179408  0.125679864
2566000000  0.058658492  0.129220080
2572500000  0.081501376  0.127124992
2579000000  0.103722616  0.118436848
2585500000  0.121867720  0.104408304
2592000000  0.138451696  0.087186336
2598500000  0.147980480  0.067779064
2605000000  0.155104544  0.050251916
2611500000  0.161263232  0.032089360
2618000000  0.163668736  0.010779278
2624500000  0.162690208 -0.010350797
2631000000  0.156239536 -0.030953744
2637500000  0.149284848 -0.045599084
2644000000  0.143831520 -0.058444544
2650500000  0.130438984 -0.077006568
2657000000  0.118517472 -0.092289016
2663500000  0.102240952 -0.107970744
2670000000  0.081778456 -0.118792632
2676500000  0.064539732 -0.124098216
2683000000  0.042758348 -0.129877360
2689500000  0.022413514 -0.133931128
2696000000  0.004027567 -0.137021696
2702500000 -0.018471816 -0.138089536
2709000000 -0.042115672 -0.132176504
2715500000 -0.062393996 -0.123911944
2722000000 -0.079311384 -0.111096376
2728500000 -0.100761736 -0.097351072
2735000000 -0.117176552 -0.082240784
2741500000 -0.128621552 -0.065174268
2748000000 -0.140735248 -0.047139244
2754500000 -0.150091200 -0.028988316
2761000000 -0.157832128 -0.009758329
2767500000 -0.164118352  0.010077305
2774000000 -0.164494960  0.031337116
2780500000 -0.166850192  0.049981956
2787000000 -0.159857328  0.072988976
2793500000 -0.152844784  0.089340320
2800000000 -0.149152496  0.107557568
