!File created by NanoVNA
# Hz S RI R 50
!LO
 600000000 -0.493025664  0.436540640
 602000000 -0.459769248  0.452239456
 604000000 -0.428022560  0.466697760
 606000000 -0.396126176  0.477744000
 608000000 -0.365000928  0.486030336
 610000000 -0.335697184  0.491618304
 612000000 -0.309050784  0.495133280
 614000000 -0.284312736  0.498144800
 616000000 -0.261245616  0.501200032
 618000000 -0.238258160  0.503713184
 620000000 -0.215943184  0.506652000
 622000000 -0.194233728  0.508040736
 624000000 -0.175001488  0.510096960
 626000000 -0.152679904  0.508299104
 628000000 -0.132909688  0.507918528
 630000000 -0.114033440  0.507069184
 632000000 -0.095822240  0.505256000
 634000000 -0.080003296  0.503731424
 636000000 -0.064505920  0.503063968
 638000000 -0.049632340  0.502873536
 640000000 -0.036012760  0.503789184
 642000000 -0.022051436  0.505703584
 644000000 -0.008145835  0.509870176
 646000000  0.007201494  0.514919232
 648000000  0.026638454  0.517786016
 650000000  0.044487400  0.526204288
 652000000  0.066431104  0.531255616
 654000000  0.087925888  0.535812736
 656000000  0.112809720  0.539348544
 658000000  0.138298272  0.543159808
 660000000  0.166335056  0.543321600
 662000000  0.195173440  0.543342336
 664000000  0.224982320  0.540773440
 666000000  0.256797136  0.536743776
 668000000  0.289277152  0.529796960
 670000000  0.321995872  0.520588224
 672000000  0.355363616  0.507713920
 674000000  0.388011936  0.493961568
 676000000  0.422076320  0.475166624
 678000000  0.454031360  0.454208800
 680000000  0.486216352  0.430163200
 682000000  0.515293664  0.404311936
 684000000  0.544865664  0.375191008
 686000000  0.572416448  0.342065664
 688000000  0.596796992  0.309429984
 690000000  0.619974528  0.272340992
 692000000  0.640565824  0.232418848
 694000000  0.657994880  0.191695488
 696000000  0.672913792  0.148606272
 698000000  0.683303552  0.103980328
 700000000  0.690616896  0.057672476
 702000000  0.695634688  0.012681836
 704000000  0.695792512 -0.034355448
 706000000  0.692432448 -0.081264480
 708000000  0.686667072 -0.127711368
 710000000  0.677384064 -0.174173872
 712000000  0.665523840 -0.220102512
 714000000  0.648855168 -0.265467856
 716000000  0.628782464 -0.308416128
 718000000  0.605798080 -0.351910816
 720000000  0.578132672 -0.393203104
 722000000  0.548876416 -0.431800000
 724000000  0.515802144 -0.468063744
 726000000  0.479207296 -0.501460448
 728000000  0.441541472 -0.532421952
 730000000  0.400914112 -0.560078848
 732000000  0.359779232 -0.583222464
 734000000  0.314799776 -0.604643840
 736000000  0.269422912 -0.623068672
 738000000  0.223169440 -0.637093504
 740000000  0.174692144 -0.647027648
 742000000  0.126728864 -0.653577088
 744000000  0.078035456 -0.657842432
 746000000  0.030144030 -0.655092928
 748000000 -0.019341828 -0.650229568
 750000000 -0.066799924 -0.640652864
 752000000 -0.113236232 -0.627821952
 754000000 -0.159233776 -0.611205952
 756000000 -0.203780848 -0.590574528
 758000000 -0.244570848 -0.564559488
 760000000 -0.284155712 -0.534735328
 762000000 -0.318690080 -0.501730816
 764000000 -0.349607520 -0.465546880
 766000000 -0.375638112 -0.428532928
 768000000 -0.397943104 -0.389343072
 770000000 -0.415373056 -0.349618912
 772000000 -0.429793504 -0.310346784
 774000000 -0.440145792 -0.269677696
 776000000 -0.446554176 -0.231085504
 778000000 -0.450320736 -0.191427440
 780000000 -0.449740576 -0.153196336
 782000000 -0.448167616 -0.115146768
 784000000 -0.441535072 -0.077259152
 786000000 -0.431699392 -0.040336884
 788000000 -0.416983232 -0.005344985
 790000000 -0.396617696  0.021824604
 792000000 -0.375747712  0.051343024
 794000000 -0.351675680  0.077602864
 796000000 -0.325099392  0.100135880
 798000000 -0.296457440  0.118811936
 800000000 -0.265913184  0.131837024
 802000000 -0.235914656  0.140208816
 804000000 -0.206015744  0.143557536
 806000000 -0.178866720  0.142943824
 808000000 -0.153307904  0.138371968
 810000000 -0.130864264  0.131143016
 812000000 -0.110992344  0.121776064
 814000000 -0.093811096  0.111062632
 816000000 -0.078993792  0.100237440
 818000000 -0.065347204  0.087646360
 820000000 -0.053838952  0.074117336
 822000000 -0.044314424  0.059173960
 824000000 -0.037550644  0.043051040
 826000000 -0.033403506  0.026560682
 828000000 -0.032013306  0.009875053
 830000000 -0.032731242 -0.005724882
 832000000 -0.036411820 -0.021481344
 834000000 -0.042833760 -0.036134724
 836000000 -0.051274120 -0.049529544
 838000000 -0.061995700 -0.060812692
 840000000 -0.073693080 -0.069501896
 842000000 -0.086884152 -0.076612848
 844000000 -0.099935800 -0.081459392
 846000000 -0.113444000 -0.085142944
 848000000 -0.126921760 -0.087126464
 850000000 -0.140994608 -0.088321160
 852000000 -0.155825088 -0.088182936
 854000000 -0.170709728 -0.086284616
 856000000 -0.186272400 -0.082664872
 858000000 -0.201311648 -0.076424872
 860000000 -0.216843456 -0.069266904
 862000000 -0.231561648 -0.059890744
 864000000 -0.245427408 -0.048365656
 866000000 -0.258328016 -0.034514660
 868000000 -0.269668160 -0.019258834
 870000000 -0.278879744 -0.002895975
 872000000 -0.286714176  0.014865746
 874000000 -0.291709536  0.032617354
 876000000 -0.294941952  0.050776428
 878000000 -0.297039232  0.067562136
 880000000 -0.298921600  0.084328248
 882000000 -0.299947328  0.101213296
 884000000 -0.301584992  0.118048240
 886000000 -0.301575712  0.137344528
 888000000 -0.299764640  0.157597280
 890000000 -0.296915200  0.178523072
 892000000 -0.290833824  0.198862240
 894000000 -0.283294880  0.218840704
 896000000 -0.273766080  0.238861520
 898000000 -0.262518560  0.257566656
 900000000 -0.249022304  0.275130528
 902000000 -0.234647680  0.292076544
 904000000 -0.219959360  0.307492704
 906000000 -0.204749136  0.321752576
 908000000 -0.187365280  0.335078464
 910000000 -0.170473008  0.347409056
 912000000 -0.151901552  0.360515744
 914000000 -0.132710312  0.371682176
 916000000 -0.112205624  0.382268288
 918000000 -0.090230408  0.391653056
 920000000 -0.066609048  0.398779648
 922000000 -0.041872044  0.403912480
 924000000 -0.018471888  0.407195904
 926000000  0.006795044  0.408452640
 928000000  0.030898132  0.408843968
 930000000  0.056207516  0.406843040
 932000000  0.081327304  0.402539232
 934000000  0.105316336  0.396691456
 936000000  0.129897760  0.389102528
 938000000  0.152844992  0.380011296
 940000000  0.175465664  0.368752288
 942000000  0.198373632  0.356242944
 944000000  0.219173200  0.340121952
 946000000  0.238315568  0.322172224
 948000000  0.254529568  0.303920032
 950000000  0.268750912  0.285240288
 952000000  0.281538624  0.266170448
 954000000  0.293467776  0.247514160
 956000000  0.303828704  0.227410976
 958000000  0.313011392  0.208095136
 960000000  0.321231264  0.188125216
 962000000  0.327254240  0.169157728
 964000000  0.333036864  0.148626048
 966000000  0.337389760  0.128997760
 968000000  0.340609536  0.109115560
 970000000  0.342624512  0.089341568
 972000000  0.342663040  0.069684248
 974000000  0.341231008  0.051567192
 976000000  0.339765280  0.033301592
 978000000  0.337433248  0.016905710
 980000000  0.335363008 -0.000653044
 982000000  0.331969344 -0.017283148
 984000000  0.327788288 -0.033617476
 986000000  0.323221376 -0.049331636
 988000000  0.318134816 -0.062877612
 990000000  0.314030816 -0.076207792
 992000000  0.309909952 -0.091093832
 994000000  0.305128672 -0.105784312
 996000000  0.299922144 -0.121261048
 998000000  0.294243232 -0.136722736
1000000000  0.286372672 -0.151643536
!HI
1500000000 -0.012481429 -0.372458432
1506500000 -0.073081200 -0.374204160
1513000000 -0.136597696 -0.365781760
1519500000 -0.196790416 -0.347042144
1526000000 -0.257196544 -0.316937312
1532500000 -0.310947808 -0.278324832
1539000000 -0.360311360 -0.229854864
1545500000 -0.402027616 -0.171383408
1552000000 -0.433209888 -0.107319392
1558500000 -0.454713888 -0.035910988
1565000000 -0.465030400  0.039104900
1571500000 -0.458012448  0.118913144
1578000000 -0.436943232  0.195703936
1584500000 -0.403226336  0.267683984
1591000000 -0.355132704  0.334243648
1597500000 -0.296918496  0.390128800
1604000000 -0.226527952  0.435795488
1610500000 -0.150480240  0.468159616
1617000000 -0.070742776  0.486725632
1623500000  0.015315730  0.489678112
1630000000  0.100542744  0.478813088
1636500000  0.182470784  0.447168672
1643000000  0.252728768  0.402106784
1649500000  0.314927840  0.344828768
1656000000  0.362542944  0.282957920
1662500000  0.404353280  0.209810288
1669000000  0.428834880  0.129470288
1675500000  0.437822112  0.047130068
1682000000  0.430708960 -0.036214868
1688500000  0.407052864 -0.114121400
1695000000  0.368145120 -0.185152256
1701500000  0.318835584 -0.244449264
1708000000  0.261834800 -0.292109184
1714500000  0.197743024 -0.328339104
1721000000  0.128977808 -0.351797152
1727500000  0.059576204 -0.360392800
1734000000 -0.007881277 -0.355455072
1740500000 -0.068713464 -0.340046528
1747000000 -0.125407536 -0.317860352
1753500000 -0.179030944 -0.284938528
1760000000 -0.223618592 -0.242320528
1766500000 -0.257434368 -0.195388128
1773000000 -0.281330080 -0.146017824
1779500000 -0.296305440 -0.094283816
1786000000 -0.304129472 -0.043720872
1792500000 -0.305236384  0.008348095
1799000000 -0.295880800  0.063425780
1805500000 -0.276491456  0.113702944
1812000000 -0.245774224  0.158097840
1818500000 -0.206113392  0.195330016
1825000000 -0.162096016  0.222242064
1831500000 -0.115335176  0.238417376
1838000000 -0.067992440  0.244925632
1844500000 -0.020848136  0.242591552
1851000000  0.021304044  0.230512704
1857500000  0.058713900  0.211811184
1864000000  0.091135616  0.187016816
1870500000  0.118173544  0.157906352
1877000000  0.138343696  0.125685840
1883500000  0.151680880  0.089906544
1890000000  0.156070208  0.052213452
1896500000  0.151972432  0.017410556
1903000000  0.141753616 -0.014459503
1909500000  0.128049328 -0.043387356
1916000000  0.108776600 -0.069660608
1922500000  0.083969736 -0.093050760
1929000000  0.053739992 -0.109816424
1935500000  0.021135270 -0.118797816
1942000000 -0.013203742 -0.121435304
1948500000 -0.047588116 -0.114312320
1955000000 -0.079127952 -0.100102136
1961500000 -0.106900152 -0.079321056
1968000000 -0.129806368 -0.051727096
1974500000 -0.145480432 -0.019029552
1981000000 -0.152945744  0.015241179
1987500000 -0.152656896  0.052892256
1994000000 -0.143470624  0.088532904
2000500000 -0.127145024  0.121944008
2007000000 -0.105561544  0.151794544
2013500000 -0.076152264  0.179640256
2020000000 -0.037143568  0.199850576
2026500000  0.004015886  0.210798272
2033000000  0.050486748  0.211552672
2039500000  0.095164680  0.201663264
2046000000  0.138006928  0.182339440
2052500000  0.175687040  0.153435888
2059000000  0.206880400  0.116251536
2065500000  0.228625216  0.073289208
2072000000  0.242786144  0.026835884
2078500000  0.248203120 -0.022274154
2085000000  0.242712560 -0.073731008
2091500000  0.229125216 -0.123308544
2098000000  0.204188384 -0.173031952
2104500000  0.169661376 -0.216698560
2111000000  0.122610512 -0.254569472
2117500000  0.068073912 -0.280674208
2124000000  0.009215469 -0.294477536
2130500000 -0.047590044 -0.296072736
2137000000 -0.106968752 -0.290978304
2143500000 -0.167572224 -0.268502624
2150000000 -0.223919520 -0.234437632
2156500000 -0.268339760 -0.191174432
2163000000 -0.306061056 -0.142166736
2169500000 -0.335968416 -0.085309552
2176000000 -0.356278272 -0.021729078
2182500000 -0.362079456  0.047160776
2189000000 -0.353887264  0.115404456
2195500000 -0.332854368  0.182255840
2202000000 -0.300478368  0.242496224
2208500000 -0.254540592  0.299546624
2215000000 -0.197269136  0.346084320
2221500000 -0.134593088  0.379316640
2228000000 -0.064211912  0.402338176
2234500000  0.007294224  0.411265472
2241000000  0.082444344  0.406078176
2247500000  0.154708480  0.385959616
2254000000  0.224145024  0.353704544
2260500000  0.285763968  0.310033856
2267000000  0.338456704  0.253326384
2273500000  0.378801152  0.186426224
2280000000  0.405613184  0.111094592
2286500000  0.418196416  0.034931256
2293000000  0.416508576 -0.045066840
2299500000  0.398680576 -0.123126608
2306000000  0.366418400 -0.197813552
2312500000  0.320841376 -0.264032208
2319000000  0.259352064 -0.322637312
2325500000  0.188793600 -0.367868192
2332000000  0.107718376 -0.397121504
2338500000  0.026952116 -0.410792864
2345000000 -0.059721332 -0.404843968
2351500000 -0.141372528 -0.381311104
2358000000 -0.215923360 -0.341649952
2364500000 -0.281894528 -0.288823136
2371000000 -0.333294464 -0.229024672
2377500000 -0.375583616 -0.156415440
2384000000 -0.402372032 -0.074242792
2390500000 -0.411626176  0.009559583
2397000000 -0.402658528  0.094385888
2403500000 -0.375911072  0.177202976
2410000000 -0.333214336  0.249929232
2416500000 -0.275541184  0.312005856
2423000000 -0.209710592  0.358682784
2429500000 -0.138345072  0.393217760
2436000000 -0.057124352  0.412857856
2442500000  0.019532410  0.420221536
2449000000  0.102326880  0.410266848
2455500000  0.180562128  0.383786336
2462000000  0.255929504  0.339851680
2468500000  0.318269312  0.278796576
2475000000  0.364714496  0.206863888
2481500000  0.393734816  0.126614720
2488000000  0.406208480  0.044976592
2494500000  0.402547648 -0.036692112
2501000000  0.380208544 -0.119210520
2507500000  0.343703136 -0.191154960
2514000000  0.289842272 -0.254750944
2520500000  0.227529648 -0.305808416
2527000000  0.153078896 -0.343025760
2533500000  0.073051880 -0.364402432
2540000000 -0.006058288 -0.364761696
2546500000 -0.083799888 -0.350477120
2553000000 -0.153834192 -0.320829376
2559500000 -0.216327792 -0.279229888
2566000000 -0.268640736 -0.227071440
2572500000 -0.311206240 -0.166179824
2579000000 -0.339348928 -0.099693536
2585500000 -0.354830496 -0.028707150
2592000000 -0.355393888  0.042096316
2598500000 -0.342786208  0.111319280
2605000000 -0.317544416  0.179146064
2611500000 -0.281406720  0.238725472
2618000000 -0.235190256  0.287088928
2624500000 -0.177518640  0.328147264
2631000000 -0.115909864  0.356814496
2637500000 -0.050713376  0.372604032
2644000000  0.013839719  0.375333696
2650500000  0.080158496  0.367221792
2657000000  0.141526176  0.345403808
2663500000  0.194336560  0.317133024
2670000000  0.247153200  0.269931424
2676500000  0.284663456  0.227707312
2683000000  0.315710272  0.173706576
2689500000  0.330355776  0.115436040
2696000000  0.338526304  0.060372972
2702500000  0.334713568  0.007236608
2709000000  0.323502656 -0.047809288
2715500000  0.304604192 -0.095581120
2722000000  0.280199040 -0.137265680
2728500000  0.243877056 -0.177082368
2735000000  0.204933648 -0.206934688
2741500000  0.168721856 -0.231336832
2748000000  0.126722112 -0.244447952
2754500000  0.082054928 -0.253067488
2761000000  0.038563764 -0.252623088
2767500000 -0.000638071 -0.257552480
2774000000 -0.035122432 -0.251682464
2780500000 -0.071245768 -0.240960096
2787000000 -0.108004832 -0.229180288
2793500000 -0.141822800 -0.210226608
2800000000 -0.179506592 -0.188858608