!File created by NanoVNA
# Hz S RI R 50
!LO
 600000000  0.201982208  0.786173120
 602000000  0.214238944  0.774268736
 604000000  0.225307392  0.764930880
 606000000  0.234750560  0.755618048
 608000000  0.243673120  0.747655424
 610000000  0.252932464  0.740757184
 612000000  0.261947008  0.734157184
 614000000  0.270834720  0.727170688
 616000000  0.279725824  0.720755136
 618000000  0.287258592  0.714385664
 620000000  0.296140000  0.709122112
 622000000  0.303996544  0.704001920
 624000000  0.310541184  0.698837312
 626000000  0.322206720  0.695828288
 628000000  0.331805184  0.691600448
 630000000  0.341897856  0.686383232
 632000000  0.353049760  0.681946560
 634000000  0.363276032  0.676136768
 636000000  0.373585600  0.669926592
 638000000  0.382113120  0.664624448
 640000000  0.392330752  0.660179200
 642000000  0.401288352  0.654964480
 644000000  0.411438400  0.651189120
 646000000  0.422496416  0.647121280
 648000000  0.431599424  0.642040960
 650000000  0.446957664  0.640386880
 652000000  0.460473248  0.637597824
 654000000  0.475214528  0.631294080
 656000000  0.490389984  0.626954368
 658000000  0.506652832  0.620481152
 660000000  0.523491872  0.612447168
 662000000  0.540551808  0.604332032
 664000000  0.558148352  0.595417472
 666000000  0.575722880  0.584090496
 668000000  0.593323712  0.572444736
 670000000  0.611935232  0.557839168
 672000000  0.631091136  0.547508224
 674000000  0.647171328  0.528798592
 676000000  0.665590080  0.511277376
 678000000  0.683853376  0.492798400
 680000000  0.701738816  0.470496640
 682000000  0.718949184  0.447313088
 684000000  0.733051712  0.422240672
 686000000  0.746697280  0.394736192
 688000000  0.758785600  0.366737152
 690000000  0.768623808  0.336373024
 692000000  0.777009984  0.307052128
 694000000  0.782133952  0.275235200
 696000000  0.787910848  0.242543408
 698000000  0.788508544  0.210302864
 700000000  0.787761600  0.177824272
 702000000  0.786146240  0.145819840
 704000000  0.781004608  0.111895296
 706000000  0.774554368  0.078345800
 708000000  0.765038272  0.044335092
 710000000  0.753077120  0.010691971
 712000000  0.738245184 -0.021350746
 714000000  0.719374016 -0.054499064
 716000000  0.697218944 -0.084763712
 718000000  0.673162688 -0.113230232
 720000000  0.647598208 -0.138571632
 722000000  0.618705344 -0.160318736
 724000000  0.588653504 -0.180249648
 726000000  0.559303744 -0.197442400
 728000000  0.526982304 -0.213851952
 730000000  0.493219392 -0.226203472
 732000000  0.459342208 -0.234965008
 734000000  0.423159776 -0.242844672
 736000000  0.385455712 -0.244603184
 738000000  0.346954560 -0.240856176
 740000000  0.312085504 -0.222732560
 742000000  0.280623712 -0.205392080
 744000000  0.255804864 -0.184383600
 746000000  0.237836592 -0.161869936
 748000000  0.226881568 -0.138018112
 750000000  0.227336016 -0.115665048
 752000000  0.240662928 -0.106652184
 754000000  0.248105728 -0.123136968
 756000000  0.227691600 -0.146317744
 758000000  0.190690128 -0.151997008
 760000000  0.156658128 -0.140169408
 762000000  0.130128864 -0.121242728
 764000000  0.110152672 -0.099182640
 766000000  0.094632440 -0.076600608
 768000000  0.082664848 -0.053417720
 770000000  0.074320424 -0.030378332
 772000000  0.069055216 -0.007785152
 774000000  0.066037460  0.013437250
 776000000  0.063859344  0.033696700
 778000000  0.063332080  0.053228272
 780000000  0.063651792  0.072117656
 782000000  0.065264956  0.090634504
 784000000  0.067690328  0.109034216
 786000000  0.071471648  0.127452600
 788000000  0.077030960  0.145803920
 790000000  0.083840472  0.163412384
 792000000  0.092828448  0.181108032
 794000000  0.103081120  0.197223360
 796000000  0.115310696  0.212875760
 798000000  0.129826416  0.225333792
 800000000  0.144924128  0.235888240
 802000000  0.160003920  0.243515664
 804000000  0.173151648  0.250100576
 806000000  0.185764032  0.256512288
 808000000  0.198986096  0.262865632
 810000000  0.212659472  0.269373472
 812000000  0.228089424  0.274959520
 814000000  0.243419120  0.278429376
 816000000  0.258646912  0.280787488
 818000000  0.272709088  0.283055200
 820000000  0.287512800  0.285735712
 822000000  0.303938560  0.287306688
 824000000  0.321563200  0.285616544
 826000000  0.338570784  0.282631360
 828000000  0.354035872  0.277993600
 830000000  0.367912608  0.272948672
 832000000  0.382004480  0.268136032
 834000000  0.395885120  0.263536400
 836000000  0.410410080  0.256479056
 838000000  0.424379424  0.248856688
 840000000  0.436727168  0.239539408
 842000000  0.448307232  0.231224480
 844000000  0.460169152  0.222524128
 846000000  0.471509280  0.213505664
 848000000  0.483322368  0.202816288
 850000000  0.493765344  0.191780608
 852000000  0.503909216  0.179855936
 854000000  0.511923072  0.166826560
 856000000  0.519212320  0.155042448
 858000000  0.525628448  0.142236320
 860000000  0.532708896  0.130655424
 862000000  0.539867328  0.118944064
 864000000  0.546775040  0.106730400
 866000000  0.555219200  0.092724896
 868000000  0.561169920  0.077250024
 870000000  0.565541312  0.061105356
 872000000  0.568106880  0.045853028
 874000000  0.569950656  0.031695970
 876000000  0.571669760  0.017582146
 878000000  0.572331840  0.002873568
 880000000  0.573365120 -0.010719887
 882000000  0.573764416 -0.025959324
 884000000  0.572835520 -0.040563280
 886000000  0.571630080 -0.053593800
 888000000  0.569528704 -0.068364152
 890000000  0.567850368 -0.080885296
 892000000  0.565868928 -0.093718640
 894000000  0.563829184 -0.107113488
 896000000  0.560312064 -0.121030920
 898000000  0.557415424 -0.133505552
 900000000  0.553643776 -0.147350736
 902000000  0.548106048 -0.160628480
 904000000  0.543017536 -0.173344496
 906000000  0.537835904 -0.187174016
 908000000  0.529531712 -0.199441440
 910000000  0.521734240 -0.211930480
 912000000  0.512775296 -0.224046688
 914000000  0.504211552 -0.234978528
 916000000  0.493471520 -0.246468880
 918000000  0.483819584 -0.255767696
 920000000  0.473058560 -0.265167712
 922000000  0.462550528 -0.272879584
 924000000  0.451853504 -0.280556448
 926000000  0.441090208 -0.286958912
 928000000  0.431153408 -0.293204960
 930000000  0.420368512 -0.298605472
 932000000  0.409690816 -0.304129248
 934000000  0.399356256 -0.308710240
 936000000  0.387575744 -0.311434112
 938000000  0.377139424 -0.314866912
 940000000  0.366466272 -0.316765120
 942000000  0.356353056 -0.318287008
 944000000  0.347253216 -0.318163232
 946000000  0.339146752 -0.318238336
 948000000  0.331724320 -0.318663008
 950000000  0.323682368 -0.319467040
 952000000  0.316739520 -0.319816288
 954000000  0.309802656 -0.320414528
 956000000  0.303320512 -0.320458368
 958000000  0.297617120 -0.321226592
 960000000  0.290969056 -0.322475616
 962000000  0.284605280 -0.322904000
 964000000  0.277730336 -0.323470656
 966000000  0.271393504 -0.323072416
 968000000  0.265255120 -0.322425376
 970000000  0.260004992 -0.322249664
 972000000  0.255309376 -0.322888160
 974000000  0.250520848 -0.322351872
 976000000  0.246319328 -0.322598848
 978000000  0.241612496 -0.323051712
 980000000  0.236943792 -0.324357728
 982000000  0.231682544 -0.324957600
 984000000  0.226072272 -0.324892928
 986000000  0.220628160 -0.325222528
 988000000  0.214815072 -0.324174880
 990000000  0.209750256 -0.322857568
 992000000  0.205353968 -0.320925120
 994000000  0.200902768 -0.319041696
 996000000  0.198505376 -0.316331712
 998000000  0.197079424 -0.314609632
1000000000  0.196074592 -0.313647648
!HI
1500000000 -0.009866649  0.515686880
1506500000  0.014612937  0.531196768
1513000000  0.047445976  0.541669440
1519500000  0.079373872  0.545363840
1526000000  0.108407744  0.548085312
1532500000  0.141424336  0.550149056
1539000000  0.174678080  0.549999808
1545500000  0.210553040  0.546631616
1552000000  0.246107664  0.539152064
1558500000  0.283635424  0.528996000
1565000000  0.320700608  0.512114944
1571500000  0.352797792  0.491027040
1578000000  0.382169344  0.469643712
1584500000  0.410972480  0.445698432
1591000000  0.437479552  0.419107936
1597500000  0.461891136  0.389198144
1604000000  0.481058784  0.360611552
1610500000  0.500899328  0.329276064
1617000000  0.517913056  0.294961440
1623500000  0.529715296  0.261048016
1630000000  0.539678464  0.225424272
1636500000  0.545367680  0.193333680
1643000000  0.548297728  0.161318480
1649500000  0.551821376  0.130951704
1656000000  0.553495552  0.095277648
1662500000  0.550415232  0.060362320
1669000000  0.541351872  0.030180304
1675500000  0.532738496 -0.001257643
1682000000  0.522041152 -0.028242920
1688500000  0.508869184 -0.052463964
1695000000  0.498178080 -0.075991080
1701500000  0.486857216 -0.100382168
1708000000  0.474538432 -0.123169688
1714500000  0.460565728 -0.146232448
1721000000  0.444326784 -0.170086992
1727500000  0.425570784 -0.191537648
1734000000  0.408273408 -0.212032128
1740500000  0.387263424 -0.233116288
1747000000  0.364565344 -0.252326848
1753500000  0.337683904 -0.270542112
1760000000  0.308571936 -0.283564896
1766500000  0.278926208 -0.292029920
1773000000  0.252457472 -0.297331104
1779500000  0.228319968 -0.303055392
1786000000  0.203251200 -0.308720608
1792500000  0.176871168 -0.313147584
1799000000  0.147965776 -0.312524608
1805500000  0.119736528 -0.306744224
1812000000  0.096275584 -0.299443040
1818500000  0.076995624 -0.289170688
1825000000  0.061070248 -0.281315904
1831500000  0.043659024 -0.276208928
1838000000  0.028636608 -0.266427968
1844500000  0.019089180 -0.259431248
1851000000  0.006350440 -0.259356112
1857500000 -0.010604492 -0.260267856
1864000000 -0.029977852 -0.254692400
1870500000 -0.045880260 -0.249479152
1877000000 -0.064180376 -0.246214048
1883500000 -0.087079464 -0.239347152
1890000000 -0.106064224 -0.227597808
1896500000 -0.122696000 -0.215315360
1903000000 -0.138497152 -0.204081600
1909500000 -0.156238656 -0.193992000
1916000000 -0.174932368 -0.178564576
1922500000 -0.192717856 -0.163432672
1929000000 -0.210352928 -0.142806144
1935500000 -0.226304256 -0.124964064
1942000000 -0.241778752 -0.102537872
1948500000 -0.258185328 -0.076950560
1955000000 -0.268694688 -0.050245684
1961500000 -0.277742432 -0.020687910
1968000000 -0.281950816  0.010239143
1974500000 -0.283692128  0.038941652
1981000000 -0.285184448  0.066783616
1987500000 -0.282566784  0.097299448
1994000000 -0.277614176  0.125823232
2000500000 -0.270413632  0.151290240
2007000000 -0.264118784  0.176017376
2013500000 -0.261014704  0.202453104
2020000000 -0.253406384  0.234181456
2026500000 -0.236605024  0.268342976
2033000000 -0.218019184  0.297544544
2039500000 -0.193682272  0.324107904
2046000000 -0.165256000  0.345080544
2052500000 -0.141222368  0.359427264
2059000000 -0.118067304  0.375339136
2065500000 -0.094786048  0.387953440
2072000000 -0.070503312  0.402839776
2078500000 -0.047950972  0.416054528
2085000000 -0.020139192  0.429451200
2091500000  0.009717542  0.441834368
2098000000  0.042184400  0.450649856
2104500000  0.077160016  0.451890432
2111000000  0.107360768  0.452605120
2117500000  0.138922224  0.450856800
2124000000  0.166095008  0.448314304
2130500000  0.201060944  0.442709312
2137000000  0.229837888  0.434635584
2143500000  0.259535376  0.421847808
2150000000  0.287259808  0.409840800
2156500000  0.314645152  0.396047136
2163000000  0.341800352  0.378855520
2169500000  0.367364896  0.358653152
2176000000  0.390093216  0.338376896
2182500000  0.411111008  0.314756832
2189000000  0.429909024  0.289576160
2195500000  0.445976736  0.267799232
2202000000  0.460272672  0.243076784
2208500000  0.472432064  0.217410896
2215000000  0.482786496  0.193040208
2221500000  0.494337664  0.172046112
2228000000  0.506581856  0.145908464
2234500000  0.516376480  0.117343296
2241000000  0.522141088  0.088829440
2247500000  0.525957344  0.059218596
2254000000  0.528545088  0.028224688
2260500000  0.525981440 -0.003114463
2267000000  0.517647456 -0.032418340
2273500000  0.508456096 -0.054280088
2280000000  0.503033760 -0.076795800
2286500000  0.496612096 -0.098784992
2293000000  0.489097856 -0.123405648
2299500000  0.481391552 -0.145943120
2306000000  0.472904416 -0.170475728
2312500000  0.459725216 -0.195198032
2319000000  0.445660000 -0.217964160
2325500000  0.429850880 -0.238733344
2332000000  0.413656832 -0.259761696
2338500000  0.395578752 -0.283044512
2345000000  0.374798208 -0.303700000
2351500000  0.352428832 -0.321984768
2358000000  0.328383136 -0.340224672
2364500000  0.301169408 -0.356222336
2371000000  0.271967808 -0.370731104
2377500000  0.243845440 -0.378077184
2384000000  0.218507408 -0.386901856
2390500000  0.189402736 -0.393641888
2397000000  0.162835328 -0.400803552
2403500000  0.129137888 -0.406616160
2410000000  0.097422160 -0.409169696
2416500000  0.067547536 -0.405736352
2423000000  0.035226504 -0.402566176
2429500000  0.005449442 -0.395401088
2436000000 -0.023681000 -0.386966208
2442500000 -0.052355756 -0.376083616
2449000000 -0.078158352 -0.360864576
2455500000 -0.104939576 -0.345854400
2462000000 -0.125740008 -0.327983744
2468500000 -0.145793872 -0.309187232
2475000000 -0.164338784 -0.290285376
2481500000 -0.181329120 -0.269659648
2488000000 -0.195805120 -0.250600608
2494500000 -0.209897008 -0.232091504
2501000000 -0.224551120 -0.211972192
2507500000 -0.237984640 -0.192319904
2514000000 -0.250550032 -0.167319264
2520500000 -0.259805376 -0.142169120
2527000000 -0.266699136 -0.117510008
2533500000 -0.271795296 -0.094913296
2540000000 -0.277633056 -0.069055328
2546500000 -0.283505184 -0.045080556
2553000000 -0.283146368 -0.014845418
2559500000 -0.279762016  0.010603197
2566000000 -0.275510688  0.035783676
2572500000 -0.273719680  0.062050416
2579000000 -0.263571328  0.088495664
2585500000 -0.252520704  0.112705520
2592000000 -0.238218528  0.131096856
2598500000 -0.225365216  0.150946224
2605000000 -0.209335088  0.166899360
2611500000 -0.193171584  0.183582464
2618000000 -0.174126320  0.195701584
2624500000 -0.155391536  0.202281376
2631000000 -0.137973824  0.205541536
2637500000 -0.124625312  0.208502192
2644000000 -0.112960632  0.211832032
2650500000 -0.100154744  0.212471104
2657000000 -0.089704392  0.209717680
2663500000 -0.083201800  0.204732928
2670000000 -0.081791560  0.200838224
2676500000 -0.082215584  0.201860464
2683000000 -0.083651152  0.201697184
2689500000 -0.087710616  0.205521808
2696000000 -0.092051328  0.208238672
2702500000 -0.099253048  0.215014832
2709000000 -0.103404520  0.227516256
2715500000 -0.111371512  0.240273520
2722000000 -0.109564328  0.258099376
2728500000 -0.116913480  0.278378848
2735000000 -0.116697736  0.299148416
2741500000 -0.105516144  0.323595264
2748000000 -0.106748632  0.347940640
2754500000 -0.090681232  0.371646784
2761000000 -0.074776104  0.401384704
2767500000 -0.052684196  0.416039232
2774000000 -0.029574250  0.433606240
2780500000 -0.010852992  0.448746816
2787000000  0.014094795  0.460523456
2793500000  0.042819748  0.474499840
2800000000  0.062680328  0.490449184
