!File created by NanoVNA
# Hz S RI R 50
!LO
 600000000  0.126533152  0.770172864
 602000000  0.139302928  0.765467392
 604000000  0.151354272  0.757065024
 606000000  0.160895520  0.749871104
 608000000  0.171458496  0.742104960
 610000000  0.180428448  0.735546496
 612000000  0.189714992  0.729783232
 614000000  0.198446480  0.723429952
 616000000  0.207773872  0.717767936
 618000000  0.215444512  0.711761536
 620000000  0.224318224  0.706462464
 622000000  0.232403472  0.701621632
 624000000  0.241791024  0.698432000
 626000000  0.249675776  0.692680448
 628000000  0.258598416  0.687467008
 630000000  0.267522896  0.682349440
 632000000  0.277335008  0.678160512
 634000000  0.286399808  0.671891648
 636000000  0.294758912  0.667024768
 638000000  0.302500096  0.660582336
 640000000  0.310832288  0.655655936
 642000000  0.318128352  0.649597120
 644000000  0.325465888  0.645053120
 646000000  0.332816160  0.641361792
 648000000  0.338722880  0.637574208
 650000000  0.348545568  0.635206528
 652000000  0.358318464  0.632313088
 654000000  0.367289888  0.628640960
 656000000  0.377732480  0.626834880
 658000000  0.388107360  0.623614272
 660000000  0.400085184  0.619670336
 662000000  0.411699712  0.615792896
 664000000  0.424630368  0.611563776
 666000000  0.436894624  0.606786112
 668000000  0.449839488  0.601690240
 670000000  0.462290688  0.595003968
 672000000  0.477035616  0.594390592
 674000000  0.491273568  0.584325440
 676000000  0.507630816  0.576387328
 678000000  0.524086848  0.569154368
 680000000  0.541199552  0.558664768
 682000000  0.558958656  0.547181888
 684000000  0.575525504  0.532802816
 686000000  0.592909120  0.518262016
 688000000  0.608213376  0.503172512
 690000000  0.624520256  0.485279264
 692000000  0.639845120  0.468099872
 694000000  0.655390720  0.448309504
 696000000  0.671240512  0.426252160
 698000000  0.684589888  0.405874656
 700000000  0.697368448  0.380120416
 702000000  0.706774912  0.356585504
 704000000  0.718250176  0.328363968
 706000000  0.727066688  0.301094400
 708000000  0.733817920  0.272151488
 710000000  0.739361792  0.240995728
 712000000  0.741801728  0.210578864
 714000000  0.742490880  0.177079104
 716000000  0.740220416  0.144109728
 718000000  0.735014528  0.110841568
 720000000  0.726874176  0.076941240
 722000000  0.715311616  0.047172912
 724000000  0.700572864  0.016268390
 726000000  0.686311488 -0.011672108
 728000000  0.668579776 -0.038391284
 730000000  0.651306496 -0.064042712
 732000000  0.633250112 -0.087984000
 734000000  0.612305792 -0.113925344
 736000000  0.589007040 -0.138455312
 738000000  0.562087168 -0.160991760
 740000000  0.531792992 -0.179723120
 742000000  0.500621216 -0.193219760
 744000000  0.470553824 -0.203445824
 746000000  0.441776832 -0.211743648
 748000000  0.412826912 -0.218472608
 750000000  0.383475200 -0.223613952
 752000000  0.354420768 -0.225766816
 754000000  0.327422336 -0.218304304
 756000000  0.299257440 -0.216069104
 758000000  0.271427456 -0.212497456
 760000000  0.245873040 -0.205893008
 762000000  0.221068304 -0.197709200
 764000000  0.198224336 -0.187501872
 766000000  0.176907888 -0.176468112
 768000000  0.156486448 -0.164564976
 770000000  0.138505840 -0.151182096
 772000000  0.122326920 -0.137468784
 774000000  0.106547040 -0.124515360
 776000000  0.091446688 -0.110468024
 778000000  0.076182472 -0.096224192
 780000000  0.061329432 -0.080553176
 782000000  0.046605608 -0.062986820
 784000000  0.033289496 -0.043490056
 786000000  0.021537178 -0.021694880
 788000000  0.011883306  0.001361238
 790000000  0.004917564  0.025645570
 792000000  0.001093755  0.051351256
 794000000  0.000623253  0.076275536
 796000000  0.003643219  0.100917832
 798000000  0.009486937  0.123761160
 800000000  0.016814802  0.144132416
 802000000  0.025543488  0.162507616
 804000000  0.034059692  0.178987392
 806000000  0.042173852  0.195408800
 808000000  0.051168228  0.211913920
 810000000  0.061887680  0.228069552
 812000000  0.073786352  0.243994480
 814000000  0.087939568  0.258091840
 816000000  0.102919344  0.270915744
 818000000  0.117109328  0.281712608
 820000000  0.132168752  0.293076768
 822000000  0.149635824  0.304274784
 824000000  0.168362432  0.312381440
 826000000  0.188238576  0.317331488
 828000000  0.206535632  0.319799904
 830000000  0.223509072  0.320973248
 832000000  0.239973696  0.321854816
 834000000  0.255726096  0.322928800
 836000000  0.272166656  0.323372160
 838000000  0.288222816  0.322522208
 840000000  0.304452512  0.319850496
 842000000  0.319702208  0.317734464
 844000000  0.334489888  0.315168960
 846000000  0.350220768  0.312309408
 848000000  0.366884960  0.307329216
 850000000  0.381781536  0.301378816
 852000000  0.396124000  0.294094368
 854000000  0.408630304  0.285084768
 856000000  0.421124224  0.276570080
 858000000  0.432349152  0.267156096
 860000000  0.443429024  0.259467632
 862000000  0.455013152  0.251415760
 864000000  0.465648128  0.242218144
 866000000  0.478090048  0.231777488
 868000000  0.488170432  0.220491504
 870000000  0.497125184  0.208072624
 872000000  0.504368256  0.196876992
 874000000  0.511752736  0.185658208
 876000000  0.518809856  0.174885792
 878000000  0.524927200  0.163043504
 880000000  0.531783648  0.152193152
 882000000  0.538446336  0.139761120
 884000000  0.544238208  0.126580984
 886000000  0.548861120  0.113745736
 888000000  0.552057536  0.099800368
 890000000  0.554860416  0.088478312
 892000000  0.557309120  0.075786992
 894000000  0.560229952  0.064740144
 896000000  0.562179776  0.051621888
 898000000  0.564873664  0.039850936
 900000000  0.566556800  0.027507718
 902000000  0.567701568  0.014516164
 904000000  0.568348864  0.002032680
 906000000  0.569937984 -0.011189236
 908000000  0.570117184 -0.024420164
 910000000  0.569245952 -0.038251920
 912000000  0.567477376 -0.052237896
 914000000  0.566004864 -0.065431500
 916000000  0.562862656 -0.080031888
 918000000  0.558920384 -0.093742752
 920000000  0.554683776 -0.106911304
 922000000  0.549019264 -0.120430800
 924000000  0.542613312 -0.132695528
 926000000  0.535361056 -0.143789552
 928000000  0.528962144 -0.154984080
 930000000  0.521456960 -0.164477280
 932000000  0.513702080 -0.174687104
 934000000  0.506457216 -0.184143824
 936000000  0.498600960 -0.192733936
 938000000  0.491378528 -0.202195856
 940000000  0.482464480 -0.211798800
 942000000  0.474397088 -0.220458384
 944000000  0.464231712 -0.227932816
 946000000  0.453996352 -0.235027664
 948000000  0.443469632 -0.241017296
 950000000  0.432710272 -0.247294080
 952000000  0.423020704 -0.250826064
 954000000  0.412036896 -0.253453648
 956000000  0.404143200 -0.257242112
 958000000  0.395929088 -0.259442832
 960000000  0.387672416 -0.262031072
 962000000  0.378254400 -0.264702592
 964000000  0.370209632 -0.265821216
 966000000  0.361946848 -0.265748416
 968000000  0.354692096 -0.266797984
 970000000  0.347978816 -0.267523504
 972000000  0.341952960 -0.267760608
 974000000  0.336268864 -0.268402064
 976000000  0.330958720 -0.268788384
 978000000  0.324781248 -0.268867520
 980000000  0.320334272 -0.269282496
 982000000  0.316031104 -0.269647232
 984000000  0.310255328 -0.270299872
 986000000  0.306516672 -0.270122208
 988000000  0.301374880 -0.270572000
 990000000  0.297745120 -0.269921056
 992000000  0.295182592 -0.268990688
 994000000  0.291806208 -0.269162592
 996000000  0.290035968 -0.268561952
 998000000  0.288611552 -0.268772768
1000000000  0.288383648 -0.269248064
!HI
1500000000 -0.138008240  0.495031712
1506500000 -0.113577256  0.516606816
1513000000 -0.083155376  0.533399232
1519500000 -0.053786332  0.541693312
1526000000 -0.028793168  0.548652288
1532500000 -0.001768826  0.558780224
1539000000  0.024113606  0.568861568
1545500000  0.058050668  0.576454784
1552000000  0.091109080  0.580066304
1558500000  0.128127488  0.579809472
1565000000  0.162854624  0.575050688
1571500000  0.195129328  0.566552192
1578000000  0.227466640  0.556885632
1584500000  0.259243936  0.545568576
1591000000  0.291295264  0.528613440
1597500000  0.320241888  0.511720480
1604000000  0.346934624  0.493463584
1610500000  0.376003104  0.472722304
1617000000  0.403407360  0.448577856
1623500000  0.425681536  0.421295168
1630000000  0.450751008  0.389164512
1636500000  0.463630784  0.369054592
1643000000  0.481153984  0.339244864
1649500000  0.496106368  0.310545024
1656000000  0.511880928  0.275805664
1662500000  0.519483104  0.247975520
1669000000  0.522360032  0.219163376
1675500000  0.529823552  0.189580592
1682000000  0.534963712  0.161972160
1688500000  0.536456640  0.135230304
1695000000  0.538576512  0.107876968
1701500000  0.539523008  0.080466512
1708000000  0.539150016  0.054499132
1714500000  0.536964864  0.027000214
1721000000  0.532760864 -0.000888613
1727500000  0.526939584 -0.028224514
1734000000  0.519215104 -0.054869776
1740500000  0.508272000 -0.081348816
1747000000  0.494607040 -0.106276832
1753500000  0.479414848 -0.130983696
1760000000  0.461644352 -0.152278624
1766500000  0.444287936 -0.169443584
1773000000  0.428032288 -0.187239776
1779500000  0.412018432 -0.206119184
1786000000  0.392612192 -0.226544736
1792500000  0.371342944 -0.244614928
1799000000  0.346353984 -0.261473024
1805500000  0.318716000 -0.276760480
1812000000  0.289737568 -0.289236608
1818500000  0.257915760 -0.297194112
1825000000  0.230394784 -0.300900352
1831500000  0.200033632 -0.304315296
1838000000  0.169784432 -0.301055008
1844500000  0.146423136 -0.297545504
1851000000  0.122276704 -0.296375200
1857500000  0.097409464 -0.294315776
1864000000  0.072618544 -0.289004672
1870500000  0.050498776 -0.281848352
1877000000  0.029184896 -0.277080256
1883500000  0.004451608 -0.270629824
1890000000 -0.016937158 -0.259520384
1896500000 -0.036813768 -0.247604976
1903000000 -0.053706648 -0.235709776
1909500000 -0.072074688 -0.225201920
1916000000 -0.090949608 -0.210160336
1922500000 -0.106120008 -0.194585840
1929000000 -0.118229976 -0.177564720
1935500000 -0.129660952 -0.164069232
1942000000 -0.143315664 -0.149735312
1948500000 -0.158240416 -0.132322920
1955000000 -0.171018816 -0.113504384
1961500000 -0.182368432 -0.090288048
1968000000 -0.188410320 -0.066250548
1974500000 -0.194247280 -0.043618996
1981000000 -0.198506304 -0.020367354
1987500000 -0.199460160  0.005591999
1994000000 -0.196419952  0.030805722
2000500000 -0.191852448  0.049419080
2007000000 -0.191156000  0.069250360
2013500000 -0.192278816  0.092062032
2020000000 -0.190623584  0.119703800
2026500000 -0.182246448  0.151196016
2033000000 -0.168844560  0.179743536
2039500000 -0.148432272  0.206740784
2046000000 -0.124069400  0.224176112
2052500000 -0.104827632  0.234913200
2059000000 -0.090473024  0.248144720
2065500000 -0.075686864  0.262289280
2072000000 -0.059272060  0.277474368
2078500000 -0.042896268  0.292329152
2085000000 -0.022196928  0.308210656
2091500000  0.002387036  0.322075168
2098000000  0.026721768  0.333901312
2104500000  0.055151828  0.335984960
2111000000  0.079271752  0.339167040
2117500000  0.105431376  0.339992576
2124000000  0.131887032  0.339907040
2130500000  0.153917312  0.333170112
2137000000  0.175160032  0.328246176
2143500000  0.198845424  0.319781984
2150000000  0.219999168  0.309908832
2156500000  0.239717856  0.300785760
2163000000  0.263789264  0.289369280
2169500000  0.285241888  0.273945792
2176000000  0.305180704  0.256366048
2182500000  0.324267808  0.236321024
2189000000  0.338989184  0.215413760
2195500000  0.351919168  0.195311584
2202000000  0.365262048  0.174168784
2208500000  0.376700256  0.152740384
2215000000  0.387081152  0.128722448
2221500000  0.396957920  0.105335944
2228000000  0.404607808  0.079091216
2234500000  0.409796768  0.054697500
2241000000  0.412230560  0.029295320
2247500000  0.413370016  0.002611051
2254000000  0.413918912 -0.022694332
2260500000  0.410389984 -0.047675328
2267000000  0.404323424 -0.074548392
2273500000  0.396250304 -0.096576880
2280000000  0.387329216 -0.120247952
2286500000  0.376815424 -0.138992208
2293000000  0.366450400 -0.156790672
2299500000  0.355924704 -0.174293392
2306000000  0.347662784 -0.192930688
2312500000  0.334854752 -0.214175920
2319000000  0.318735072 -0.233393872
2325500000  0.300741568 -0.250718800
2332000000  0.282658368 -0.266699344
2338500000  0.260425952 -0.283118784
2345000000  0.232892976 -0.296418848
2351500000  0.211895536 -0.305660800
2358000000  0.184834560 -0.312007936
2364500000  0.157408496 -0.316496288
2371000000  0.130460320 -0.319779008
2377500000  0.106904640 -0.316635680
2384000000  0.083383632 -0.316790976
2390500000  0.058544504 -0.314876928
2397000000  0.034039556 -0.314068928
2403500000  0.008089954 -0.310487392
2410000000 -0.016355735 -0.305600352
2416500000 -0.041560000 -0.298546432
2423000000 -0.066771804 -0.289148480
2429500000 -0.090253784 -0.279176224
2436000000 -0.114024528 -0.268520320
2442500000 -0.137189776 -0.254124432
2449000000 -0.159972512 -0.238031248
2455500000 -0.182855616 -0.218125488
2462000000 -0.199146128 -0.198674864
2468500000 -0.215516736 -0.178298480
2475000000 -0.231275376 -0.155223536
2481500000 -0.243843888 -0.131405848
2488000000 -0.253108944 -0.107394528
2494500000 -0.261190032 -0.084845312
2501000000 -0.269280576 -0.063379868
2507500000 -0.275386592 -0.036815376
2514000000 -0.279061792 -0.009217989
2520500000 -0.278146272  0.017970300
2527000000 -0.277190272  0.043605576
2533500000 -0.272976000  0.067646392
2540000000 -0.267819552  0.095332272
2546500000 -0.260402240  0.122542712
2553000000 -0.248572208  0.150024768
2559500000 -0.235196128  0.173526720
2566000000 -0.220512416  0.196184800
2572500000 -0.203836656  0.219438976
2579000000 -0.183236176  0.239789808
2585500000 -0.162502960  0.258371296
2592000000 -0.139946048  0.271689888
2598500000 -0.118851464  0.285785184
2605000000 -0.095916976  0.298105920
2611500000 -0.071239928  0.308928416
2618000000 -0.045280176  0.317012960
2624500000 -0.020705506  0.320257184
2631000000  0.005441786  0.321450112
2637500000  0.028094632  0.321425760
2644000000  0.050734872  0.320285248
2650500000  0.072112192  0.314190656
2657000000  0.092049568  0.306464928
2663500000  0.110828216  0.294660192
2670000000  0.124943072  0.283138368
2676500000  0.139230032  0.271132640
2683000000  0.151037584  0.251454416
2689500000  0.154226144  0.236283584
2696000000  0.157476224  0.220761568
2702500000  0.158549968  0.209300128
2709000000  0.154142304  0.194364224
2715500000  0.145621200  0.182443088
2722000000  0.145715968  0.176828752
2728500000  0.132792920  0.169902800
2735000000  0.121147872  0.165532784
2741500000  0.112861104  0.163677392
2748000000  0.105708176  0.167673456
2754500000  0.099243856  0.171556672
2761000000  0.096620736  0.173974816
2767500000  0.088524664  0.181390992
2774000000  0.084198120  0.190219504
2780500000  0.083654632  0.196669040
2787000000  0.083374416  0.208690368
2793500000  0.084292888  0.218637648
2800000000  0.082999184  0.228556192
