!File created by NanoVNA
# Hz S RI R 50
!LO
 600000000 -0.103927136 -0.092305616
 602000000 -0.101055880 -0.067971592
 604000000 -0.094266088 -0.047663628
 606000000 -0.085668480 -0.032483936
 608000000 -0.077060416 -0.021440232
 610000000 -0.069415864 -0.013967395
 612000000 -0.063245908 -0.007931828
 614000000 -0.057869392 -0.003507793
 616000000 -0.053327068  0.000389002
 618000000 -0.049548124  0.003835542
 620000000 -0.045549300  0.006348856
 622000000 -0.042115004  0.007578644
 624000000 -0.040478780  0.007835722
 626000000 -0.038448512  0.009542137
 628000000 -0.036226732  0.010853846
 630000000 -0.034144860  0.011362755
 632000000 -0.031938396  0.011764749
 634000000 -0.029693948  0.011464598
 636000000 -0.027006280  0.010252252
 638000000 -0.024575768  0.007501563
 640000000 -0.023322634  0.003924019
 642000000 -0.023853344 -0.000149348
 644000000 -0.025043554 -0.004093992
 646000000 -0.027185916 -0.007834266
 648000000 -0.030336694 -0.011230042
 650000000 -0.033535644 -0.014713394
 652000000 -0.037183584 -0.018330200
 654000000 -0.042352884 -0.021904660
 656000000 -0.048759796 -0.024330428
 658000000 -0.055722664 -0.025393430
 660000000 -0.062322472 -0.024710934
 662000000 -0.067761328 -0.022873052
 664000000 -0.071801040 -0.021823374
 666000000 -0.076059576 -0.022028310
 668000000 -0.081199912 -0.022690072
 670000000 -0.087171712 -0.023569956
 672000000 -0.094506160 -0.023547482
 674000000 -0.101617968 -0.021715498
 676000000 -0.107580000 -0.019284942
 678000000 -0.113699480 -0.018351628
 680000000 -0.121043688 -0.017586776
 682000000 -0.129772872 -0.016237084
 684000000 -0.139322032 -0.013575113
 686000000 -0.149945760 -0.008605350
 688000000 -0.159825296 -0.000919649
 690000000 -0.167549040  0.008794483
 692000000 -0.173060848  0.018430332
 694000000 -0.176792048  0.027665322
 696000000 -0.179679392  0.036830404
 698000000 -0.182190864  0.044906572
 700000000 -0.183853888  0.052929168
 702000000 -0.185215168  0.059662732
 704000000 -0.188191584  0.065640344
 706000000 -0.192681456  0.073032808
 708000000 -0.196833920  0.082808160
 710000000 -0.199554352  0.094217336
 712000000 -0.200714352  0.106088536
 714000000 -0.200001392  0.118844512
 716000000 -0.197323680  0.130350336
 718000000 -0.193789696  0.140976720
 720000000 -0.190271648  0.151107920
 722000000 -0.186933760  0.161804288
 724000000 -0.181427472  0.172808928
 726000000 -0.174188096  0.182612496
 728000000 -0.166133776  0.191447200
 730000000 -0.158099280  0.199569024
 732000000 -0.149292160  0.206712464
 734000000 -0.143574528  0.217904960
 736000000 -0.133010384  0.223476016
 738000000 -0.121619888  0.227285728
 740000000 -0.111073448  0.229034064
 742000000 -0.101390016  0.229823280
 744000000 -0.092266704  0.229824768
 746000000 -0.084372008  0.229720256
 748000000 -0.076536880  0.229572192
 750000000 -0.067888000  0.229304704
 752000000 -0.060092272  0.228134816
 754000000 -0.052446908  0.225722544
 756000000 -0.045358804  0.222855024
 758000000 -0.039135844  0.221005504
 760000000 -0.033036690  0.218138688
 762000000 -0.026803924  0.214489872
 764000000 -0.020948096  0.210973184
 766000000 -0.015951692  0.206464752
 768000000 -0.012209756  0.202491440
 770000000 -0.010049585  0.198407712
 772000000 -0.008336871  0.195377536
 774000000 -0.007047106  0.193788448
 776000000 -0.005231221  0.193309280
 778000000 -0.001993218  0.193529984
 780000000  0.001276827  0.192911200
 782000000  0.005528275  0.191990640
 784000000  0.009218908  0.191535616
 786000000  0.013741669  0.191793344
 788000000  0.019707502  0.192245504
 790000000  0.027387940  0.191853872
 792000000  0.036364168  0.189688624
 794000000  0.045107844  0.186212592
 796000000  0.053990344  0.180805408
 798000000  0.062801244  0.173489872
 800000000  0.069830560  0.165021616
 802000000  0.076189784  0.155983712
 804000000  0.081327824  0.146941312
 806000000  0.086568608  0.136983760
 808000000  0.091016656  0.126835496
 810000000  0.095148128  0.115501800
 812000000  0.097369824  0.103429448
 814000000  0.097902096  0.091515856
 816000000  0.097881296  0.080304520
 818000000  0.098204360  0.069609672
 820000000  0.098832352  0.058335172
 822000000  0.098973024  0.045523952
 824000000  0.097029576  0.030383240
 826000000  0.092517872  0.014996933
 828000000  0.086595408  0.000794813
 830000000  0.078186992 -0.012394390
 832000000  0.069664360 -0.024516938
 834000000  0.060606296 -0.036493792
 836000000  0.050522760 -0.048646712
 838000000  0.038523108 -0.060146816
 840000000  0.024676612 -0.070889416
 842000000  0.010574228 -0.079924632
 844000000 -0.004105580 -0.087682464
 846000000 -0.018939124 -0.095025192
 848000000 -0.034693872 -0.101702272
 850000000 -0.051252088 -0.107573344
 852000000 -0.069141640 -0.112021376
 854000000 -0.087594640 -0.114406016
 856000000 -0.105238464 -0.115466624
 858000000 -0.122983592 -0.115923720
 860000000 -0.141063152 -0.116030320
 862000000 -0.159771904 -0.115015912
 864000000 -0.178766384 -0.112438400
 866000000 -0.199110016 -0.109049824
 868000000 -0.219911920 -0.103182976
 870000000 -0.240248096 -0.094441016
 872000000 -0.259358464 -0.083384536
 874000000 -0.276676480 -0.071182136
 876000000 -0.292514240 -0.057639756
 878000000 -0.306517504 -0.043723620
 880000000 -0.319605600 -0.030064724
 882000000 -0.332597952 -0.015063985
 884000000 -0.344306400 -0.000713454
 886000000 -0.356188736  0.014673071
 888000000 -0.367273824  0.031488020
 890000000 -0.377512384  0.048180776
 892000000 -0.386413600  0.066502848
 894000000 -0.394842848  0.084773264
 896000000 -0.399108288  0.104347488
 898000000 -0.404504832  0.121303160
 900000000 -0.408536800  0.139875824
 902000000 -0.411914816  0.157655216
 904000000 -0.415025216  0.174603520
 906000000 -0.418814624  0.193104384
 908000000 -0.422049280  0.211477120
 910000000 -0.423725344  0.231728640
 912000000 -0.424381984  0.252041184
 914000000 -0.423847744  0.272610208
 916000000 -0.422256320  0.293508128
 918000000 -0.419347520  0.314296288
 920000000 -0.413822688  0.336388416
 922000000 -0.407881632  0.357067840
 924000000 -0.399336000  0.377374784
 926000000 -0.391264288  0.397244480
 928000000 -0.382000096  0.414891136
 930000000 -0.372755488  0.432131456
 932000000 -0.360101792  0.450113952
 934000000 -0.348152256  0.466038720
 936000000 -0.336349216  0.482833280
 938000000 -0.322378528  0.496696704
 940000000 -0.308489184  0.510491328
 942000000 -0.295573248  0.523189536
 944000000 -0.279019296  0.535458016
 946000000 -0.265386432  0.545862848
 948000000 -0.250233888  0.555391104
 950000000 -0.233618416  0.565897664
 952000000 -0.219633904  0.573347328
 954000000 -0.204323264  0.581687488
 956000000 -0.189612800  0.587456896
 958000000 -0.174683424  0.593407360
 960000000 -0.161078512  0.599100032
 962000000 -0.147347888  0.605088192
 964000000 -0.133469928  0.610801856
 966000000 -0.118970544  0.616118464
 968000000 -0.104101520  0.621273792
 970000000 -0.087996776  0.624862016
 972000000 -0.073988952  0.629635840
 974000000 -0.058912372  0.631322688
 976000000 -0.044324144  0.633209152
 978000000 -0.029272618  0.635512640
 980000000 -0.015300160  0.636914176
 982000000 -0.001034703  0.637702912
 984000000  0.013301945  0.638030848
 986000000  0.025750268  0.638663168
 988000000  0.040441292  0.639355008
 990000000  0.054040016  0.638648896
 992000000  0.068525696  0.638224384
 994000000  0.082257456  0.636590272
 996000000  0.096832344  0.633986432
 998000000  0.110388936  0.630942208
1000000000  0.123616176  0.627179584
!HI
1500000000 -0.215834304 -0.155399760
1506500000 -0.212036688 -0.149429808
1513000000 -0.212743248 -0.150542096
1519500000 -0.221891104 -0.152180128
1526000000 -0.233925040 -0.148059584
1532500000 -0.244124928 -0.140937472
1539000000 -0.252857632 -0.135123984
1545500000 -0.261538272 -0.131844152
1552000000 -0.273001920 -0.130421816
1558500000 -0.289639072 -0.128530208
1565000000 -0.312181856 -0.123323832
1571500000 -0.334211232 -0.112541784
1578000000 -0.357488928 -0.097797048
1584500000 -0.378016256 -0.079705768
1591000000 -0.400701472 -0.059689852
1597500000 -0.420232352 -0.033641668
1604000000 -0.437372576 -0.008089002
1610500000 -0.454128000  0.020276546
1617000000 -0.471850432  0.056830432
1623500000 -0.483398816  0.094213544
1630000000 -0.489444736  0.135028176
1636500000 -0.489574560  0.171604800
1643000000 -0.487375168  0.209778368
1649500000 -0.485568672  0.246781568
1656000000 -0.478786240  0.285264512
1662500000 -0.469328352  0.329010304
1669000000 -0.452427552  0.368388064
1675500000 -0.433589280  0.406401440
1682000000 -0.414190368  0.440013216
1688500000 -0.388879520  0.473972544
1695000000 -0.360867616  0.504314432
1701500000 -0.333141184  0.532929728
1708000000 -0.306227296  0.555098240
1714500000 -0.277646144  0.580035776
1721000000 -0.246134608  0.604268352
1727500000 -0.212818288  0.625750720
1734000000 -0.178268496  0.642773440
1740500000 -0.141970352  0.657783360
1747000000 -0.109275984  0.670257088
1753500000 -0.072335376  0.681722176
1760000000 -0.038638204  0.691383296
1766500000  0.000523799  0.697922368
1773000000  0.036097916  0.703123904
1779500000  0.071853640  0.706150592
1786000000  0.109844264  0.706342528
1792500000  0.143321664  0.705045888
1799000000  0.179394864  0.704088128
1805500000  0.215430720  0.698672704
1812000000  0.255858416  0.691278016
1818500000  0.290567296  0.681587200
1825000000  0.322603648  0.673211648
1831500000  0.359124608  0.656840064
1838000000  0.397463904  0.639781248
1844500000  0.430034912  0.618319808
1851000000  0.463428576  0.595119552
1857500000  0.492751520  0.575320448
1864000000  0.523178816  0.549021696
1870500000  0.551567168  0.522000544
1877000000  0.577220224  0.492610976
1883500000  0.601263872  0.461205600
1890000000  0.622020480  0.434911104
1896500000  0.642678016  0.401174112
1903000000  0.663203648  0.367088512
1909500000  0.679940864  0.332073664
1916000000  0.694605440  0.294058720
1922500000  0.705787904  0.258976096
1929000000  0.720600896  0.214862640
1935500000  0.723217472  0.176523872
1942000000  0.726121728  0.133672088
1948500000  0.725164288  0.092584696
1955000000  0.719663040  0.059237552
1961500000  0.711787456  0.020396696
1968000000  0.705021632 -0.007765118
1974500000  0.703858560 -0.038295412
1981000000  0.704137024 -0.073810568
1987500000  0.700750592 -0.114520440
1994000000  0.688308608 -0.160506640
2000500000  0.671330176 -0.199068160
2007000000  0.649012224 -0.237738272
2013500000  0.622640896 -0.276875424
2020000000  0.593062784 -0.305583360
2026500000  0.562318592 -0.344761312
2033000000  0.528957664 -0.370897152
2039500000  0.491635680 -0.397698912
2046000000  0.453436160 -0.418617600
2052500000  0.413277600 -0.437697696
2059000000  0.370073664 -0.451824128
2065500000  0.326804544 -0.461160768
2072000000  0.284826656 -0.466150016
2078500000  0.241662768 -0.469411360
2085000000  0.198879712 -0.467232960
2091500000  0.158344928 -0.460658048
2098000000  0.120533600 -0.452040064
2104500000  0.082195680 -0.436813760
2111000000  0.051020904 -0.421519232
2117500000  0.020063724 -0.405738048
2124000000 -0.005258302 -0.390081216
2130500000 -0.032576330 -0.369443200
2137000000 -0.056673612 -0.350360352
2143500000 -0.075941496 -0.331947104
2150000000 -0.095538824 -0.312974112
2156500000 -0.112929312 -0.295581376
2163000000 -0.128787440 -0.278100128
2169500000 -0.148198368 -0.261845024
2176000000 -0.166808736 -0.245489248
2182500000 -0.186492704 -0.227755936
2189000000 -0.207955904 -0.205495232
2195500000 -0.226864240 -0.182426032
2202000000 -0.246699344 -0.155572880
2208500000 -0.265460368 -0.126538384
2215000000 -0.281742208 -0.094758632
2221500000 -0.293447008 -0.057600900
2228000000 -0.303856192 -0.019491588
2234500000 -0.310747680  0.019584804
2241000000 -0.313841664  0.060761156
2247500000 -0.311403904  0.104072904
2254000000 -0.305388512  0.146428912
2260500000 -0.293347136  0.189686896
2267000000 -0.276420960  0.232227408
2273500000 -0.255852128  0.272430784
2280000000 -0.228324208  0.311048544
2286500000 -0.202250976  0.345544800
2293000000 -0.167456720  0.379586944
2299500000 -0.132888808  0.407738176
2306000000 -0.093236888  0.432366368
2312500000 -0.051449960  0.454283008
2319000000 -0.008592941  0.470066880
2325500000  0.036673312  0.481326816
2332000000  0.083288856  0.488387808
2338500000  0.128527912  0.488581472
2345000000  0.174330256  0.484211840
2351500000  0.214603984  0.477334784
2358000000  0.256585056  0.464278528
2364500000  0.296133408  0.449176896
2371000000  0.333018688  0.430186528
2377500000  0.368996096  0.406308704
2384000000  0.400353248  0.381961664
2390500000  0.430861696  0.355339488
2397000000  0.456510496  0.327085024
2403500000  0.483343168  0.290474624
2410000000  0.504184128  0.257994208
2416500000  0.521866752  0.223001424
2423000000  0.536035072  0.186898688
2429500000  0.548646464  0.149550256
2436000000  0.554208960  0.110854984
2442500000  0.563259840  0.071309176
2449000000  0.565954432  0.032647328
2455500000  0.565344896 -0.005765840
2462000000  0.561663360 -0.046304276
2468500000  0.554827264 -0.084984816
2475000000  0.544803136 -0.121829472
2481500000  0.532491040 -0.157970304
2488000000  0.517973856 -0.194600352
2494500000  0.500133504 -0.229866960
2501000000  0.479366080 -0.263506688
2507500000  0.456373280 -0.294384256
2514000000  0.428838560 -0.325733280
2520500000  0.399823808 -0.353767712
2527000000  0.369977760 -0.377334688
2533500000  0.338204960 -0.400603648
2540000000  0.305035616 -0.419867648
2546500000  0.270180096 -0.439624896
2553000000  0.229646384 -0.452961056
2559500000  0.191120960 -0.464551584
2566000000  0.148530896 -0.471625056
2572500000  0.110397768 -0.476284064
2579000000  0.068351264 -0.477509312
2585500000  0.027339396 -0.476598496
2592000000 -0.017053254 -0.473236064
2598500000 -0.061138648 -0.464619104
2605000000 -0.103006696 -0.455153856
2611500000 -0.143953056 -0.437061888
2618000000 -0.185926096 -0.420396000
2624500000 -0.225166320 -0.399910720
2631000000 -0.266118256 -0.376051456
2637500000 -0.300693216 -0.346214720
2644000000 -0.334915968 -0.312832160
2650500000 -0.366965376 -0.278427648
2657000000 -0.395468160 -0.241373200
2663500000 -0.422816608 -0.202709840
2670000000 -0.444879584 -0.161781120
2676500000 -0.463641888 -0.118084600
2683000000 -0.480391712 -0.073928680
2689500000 -0.493563328 -0.027608490
2696000000 -0.500197344  0.017698022
2702500000 -0.506092256  0.067075528
2709000000 -0.506828736  0.118656280
2715500000 -0.502649056  0.161347072
2722000000 -0.494354464  0.209792832
2728500000 -0.483084192  0.255885152
2735000000 -0.470411264  0.297675936
2741500000 -0.453288896  0.341581568
2748000000 -0.437322368  0.377880352
2754500000 -0.411998144  0.417543808
2761000000 -0.376108448  0.463318240
2767500000 -0.358700608  0.488922528
2774000000 -0.323310432  0.523010560
2780500000 -0.300673696  0.550478656
2787000000 -0.256317072  0.581395392
2793500000 -0.223512944  0.601572544
2800000000 -0.180194400  0.625689856
